(1725350400.000000) can0 18FEE000#3f2d61100cff0100
(1725350400.000000) can0 18FEE400#8c027a016914c404
(1725350400.000000) can0 18FEE100#7203640374036c03
(1725350400.000000) can0 18FEE200#ea1bb91b181cdd1b
(1725350400.000000) can0 18FEE300#070bc5044001800c
(1725350400.020000) can0 18FEE000#ed2d6a100cff0100
(1725350400.020000) can0 18FEE400#950263015114c304
(1725350400.040000) can0 18FEE000#e22c8b100dff0100
(1725350400.040000) can0 18FEE400#94027d016d14c404
(1725350400.060000) can0 18FEE000#8c2d5e100eff0100
(1725350400.060000) can0 18FEE400#9d0265017914c404
(1725350400.080000) can0 18FEE000#2a2d85100dff0100
(1725350400.080000) can0 18FEE400#840259016814c304
(1725350400.100000) can0 18FEE000#822d98100cff0100
(1725350400.100000) can0 18FEE400#b10285019014c404
(1725350400.100000) can0 18FEE100#710365037b036e03
(1725350400.100000) can0 18FEE200#f21bad1b241ce01b
(1725350400.100000) can0 18FEE300#090bc4044201800c
(1725350400.120000) can0 18FEE000#122d3b100cff0100
(1725350400.120000) can0 18FEE400#750283018c14c404
(1725350400.140000) can0 18FEE000#242d6c100cff0100
(1725350400.140000) can0 18FEE400#ad025e018714c504
(1725350400.160000) can0 18FEE000#082e84100dff0100
(1725350400.160000) can0 18FEE400#9a02bb017714c304
(1725350400.180000) can0 18FEE000#872d7d100dff0100
(1725350400.180000) can0 18FEE400#8c02bc017a14c504
(1725350400.200000) can0 18FEE000#df2d53100cff0100
(1725350400.200000) can0 18FEE400#89027a018014c404
(1725350400.200000) can0 18FEE100#7103650376036e03
(1725350400.200000) can0 18FEE200#f71bad1b1e1cd71b
(1725350400.200000) can0 18FEE300#d20ac4043c01800c
(1725350400.220000) can0 18FEE000#0b2d78100dff0100
(1725350400.220000) can0 18FEE400#b70283017d14c404
(1725350400.240000) can0 18FEE000#fd2c6a100cff0100
(1725350400.240000) can0 18FEE400#7f029e018214c504
(1725350400.260000) can0 18FEE000#312d28100cff0100
(1725350400.260000) can0 18FEE400#8b029f018114c404
(1725350400.280000) can0 18FEE000#c62c49100cff0100
(1725350400.280000) can0 18FEE400#a902ae017f14c704
(1725350400.300000) can0 18FEE000#4c2d81100dff0100
(1725350400.300000) can0 18FEE400#89028d017d14c304
(1725350400.300000) can0 18FEE100#6f036b037d036703
(1725350400.300000) can0 18FEE200#e81bc21b221cc61b
(1725350400.300000) can0 18FEE300#c30ac2044201800c
(1725350400.320000) can0 18FEE000#bd2c17100dff0100
(1725350400.320000) can0 18FEE400#8d0297017314c304
(1725350400.340000) can0 18FEE000#7d2dad100dff0100
(1725350400.340000) can0 18FEE400#97026e017d14c404
(1725350400.360000) can0 18FEE000#f42cb8100dff0100
(1725350400.360000) can0 18FEE400#b002c6015914c504
(1725350400.380000) can0 18FEE000#6a2ca9100dff0100
(1725350400.380000) can0 18FEE400#9002c6016c14c404
(1725350400.400000) can0 18FEE000#682d4c100dff0100
(1725350400.400000) can0 18FEE400#8602a2017614c504
(1725350400.400000) can0 18FEE100#700361037d036d03
(1725350400.400000) can0 18FEE200#eb1bb21b0a1cec1b
(1725350400.400000) can0 18FEE300#ed0ac4044401800c
(1725350400.420000) can0 18FEE000#3a2d89100dff0100
(1725350400.420000) can0 18FEE400#6b0285017714c304
(1725350400.440000) can0 18FEE000#322d73100cff0100
(1725350400.440000) can0 18FEE400#9902ba017014c504
(1725350400.460000) can0 18FEE000#f12c58100dff0100
(1725350400.460000) can0 18FEE400#8d027e018814c504
(1725350400.480000) can0 18FEE000#072d4d100dff0100
(1725350400.480000) can0 18FEE400#9802a0018e14c304
(1725350400.500000) can0 18FEE000#532d66100cff0100
(1725350400.500000) can0 18FEE400#67029f016214c104
(1725350400.500000) can0 18FEE100#70035f037a036d03
(1725350400.500000) can0 18FEE200#ff1bde1b111cd91b
(1725350400.500000) can0 18FEE300#f00ac6044101800c
(1725350400.520000) can0 18FEE000#5e2c31100dff0100
(1725350400.520000) can0 18FEE400#a60294016614c304
(1725350400.540000) can0 18FEE000#0b2d85100dff0100
(1725350400.540000) can0 18FEE400#7e029a015b14c504
(1725350400.560000) can0 18FEE000#b02c49100dff0100
(1725350400.560000) can0 18FEE400#820294018214c404
(1725350400.580000) can0 18FEE000#5b2d49100dff0100
(1725350400.580000) can0 18FEE400#9902a9018614c404
(1725350400.600000) can0 18FEE000#692d8b100dff0100
(1725350400.600000) can0 18FEE400#6e0273016414c504
(1725350400.600000) can0 18FEE100#6d03640372036b03
(1725350400.600000) can0 18FEE200#f41bcf1b181ce81b
(1725350400.600000) can0 18FEE300#f00ac3044201800c
(1725350400.620000) can0 18FEE000#372d7f100dff0100
(1725350400.620000) can0 18FEE400#a0024a017b14c404
(1725350400.640000) can0 18FEE000#0b2da0100dff0100
(1725350400.640000) can0 18FEE400#b20296016a14c304
(1725350400.660000) can0 18FEE000#822d43100cff0100
(1725350400.660000) can0 18FEE400#8502c6016714c404
(1725350400.680000) can0 18FEE000#9d2c82100cff0100
(1725350400.680000) can0 18FEE400#80029d019214c304
(1725350400.700000) can0 18FEE000#202e5e100cff0100
(1725350400.700000) can0 18FEE400#96029c017314c304
(1725350400.700000) can0 18FEE100#770364037c036d03
(1725350400.700000) can0 18FEE200#d51bbe1b0e1cc61b
(1725350400.700000) can0 18FEE300#cd0ac4044101800c
(1725350400.720000) can0 18FEE000#da2c52100cff0100
(1725350400.720000) can0 18FEE400#820298018214c204
(1725350400.740000) can0 18FEE000#632d98100cff0100
(1725350400.740000) can0 18FEE400#870281018414c304
(1725350400.760000) can0 18FEE000#bd2d43100cff0100
(1725350400.760000) can0 18FEE400#8e0278017314c504
(1725350400.780000) can0 18FEE000#4e2d6d100cff0100
(1725350400.780000) can0 18FEE400#870247017b14c504
(1725350400.800000) can0 18FEE000#2b2d54100dff0100
(1725350400.800000) can0 18FEE400#60029a016414c304
(1725350400.800000) can0 18FEE100#7103670378036903
(1725350400.800000) can0 18FEE200#e71bbf1b2d1cd51b
(1725350400.800000) can0 18FEE300#db0ac3044101800c
(1725350400.820000) can0 18FEE000#632c3b100dff0100
(1725350400.820000) can0 18FEE400#7e0265018914c404
(1725350400.840000) can0 18FEE000#1f2d69100dff0100
(1725350400.840000) can0 18FEE400#7c02c1017e14c304
(1725350400.860000) can0 18FEE000#702d7e100cff0100
(1725350400.860000) can0 18FEE400#7f02d6017f14c304
(1725350400.880000) can0 18FEE000#ec2c72100cff0100
(1725350400.880000) can0 18FEE400#6e0291016e14c204
(1725350400.900000) can0 18FEE000#fc2c2f100dff0100
(1725350400.900000) can0 18FEE400#800294018114c304
(1725350400.900000) can0 18FEE100#76036a0376036a03
(1725350400.900000) can0 18FEE200#f81bcc1b101cd81b
(1725350400.900000) can0 18FEE300#1c0bc4044201800c
(1725350400.920000) can0 18FEE000#322d39100cff0100
(1725350400.920000) can0 18FEE400#ad0254018a14c204
(1725350400.940000) can0 18FEE000#452d61100dff0100
(1725350400.940000) can0 18FEE400#9602bb016e14c404
(1725350400.960000) can0 18FEE000#562d5c100cff0100
(1725350400.960000) can0 18FEE400#7402a7016d14c304
(1725350400.980000) can0 18FEE000#3a2d61100cff0100
(1725350400.980000) can0 18FEE400#7d02a2017314c204
(1725350401.000000) can0 18FEE000#672d60100dff0100
(1725350401.000000) can0 18FEE400#6102c3018014c404
(1725350401.000000) can0 18FEE100#72036d0373036b03
(1725350401.000000) can0 18FEE200#de1bcd1b221ce51b
(1725350401.000000) can0 18FEE300#e00ac3044701800c
(1725350401.020000) can0 18FEE000#c02d86100dff0100
(1725350401.020000) can0 18FEE400#8a02a7019314c404
(1725350401.040000) can0 18FEE000#e32d45100dff0100
(1725350401.040000) can0 18FEE400#8c026d016f14c504
(1725350401.060000) can0 18FEE000#4b2da2100cff0100
(1725350401.060000) can0 18FEE400#7b027f016a14c304
(1725350401.080000) can0 18FEE000#fc2c2f100cff0100
(1725350401.080000) can0 18FEE400#aa0297017f14c104
(1725350401.100000) can0 18FEE000#022d11100cff0100
(1725350401.100000) can0 18FEE400#b10284017114c104
(1725350401.100000) can0 18FEE100#710362037a036803
(1725350401.100000) can0 18FEE200#f71ba51b121ce01b
(1725350401.100000) can0 18FEE300#fb0ac4043e01800c
(1725350401.120000) can0 18FEE000#242e59100cff0100
(1725350401.120000) can0 18FEE400#9302ce017d14c204
(1725350401.140000) can0 18FEE000#ec2c6b100dff0100
(1725350401.140000) can0 18FEE400#9802a9016c14c304
(1725350401.160000) can0 18FEE000#c62d5a100cff0100
(1725350401.160000) can0 18FEE400#7e02b5018514c104
(1725350401.180000) can0 18FEE000#f52c4f100dff0100
(1725350401.180000) can0 18FEE400#9c02ac018f14c504
(1725350401.200000) can0 18FEE000#662d83100dff0100
(1725350401.200000) can0 18FEE400#8602c5017a14c404
(1725350401.200000) can0 18FEE100#6e0368037d037103
(1725350401.200000) can0 18FEE200#ef1bc11b1c1cda1b
(1725350401.200000) can0 18FEE300#fc0ac4044401800c
(1725350401.220000) can0 18FEE000#ba2d6e100dff0100
(1725350401.220000) can0 18FEE400#920255016814c404
(1725350401.240000) can0 18FEE000#792d65100cff0100
(1725350401.240000) can0 18FEE400#77026401a314c304
(1725350401.260000) can0 18FEE000#372d5a100cff0100
(1725350401.260000) can0 18FEE400#820297016414c504
(1725350401.280000) can0 18FEE000#1f2d78100dff0100
(1725350401.280000) can0 18FEE400#930275018a14c404
(1725350401.300000) can0 18FEE000#5e2c55100bff0100
(1725350401.300000) can0 18FEE400#6a0278018f14c204
(1725350401.300000) can0 18FEE100#6e03620376036a03
(1725350401.300000) can0 18FEE200#e81bb31b2d1cec1b
(1725350401.300000) can0 18FEE300#d90ac5043101800c
(1725350401.320000) can0 18FEE000#952d36100cff0100
(1725350401.320000) can0 18FEE400#770283017d14c404
(1725350401.340000) can0 18FEE000#3a2d67100cff0100
(1725350401.340000) can0 18FEE400#83027b016f14c304
(1725350401.360000) can0 18FEE000#f62c73100dff0100
(1725350401.360000) can0 18FEE400#8b0294018014c404
(1725350401.380000) can0 18FEE000#bb2daa100dff0100
(1725350401.380000) can0 18FEE400#ad0274016714c304
(1725350401.400000) can0 18FEE000#312d40100dff0100
(1725350401.400000) can0 18FEE400#7d027b018014c404
(1725350401.400000) can0 18FEE100#700362037d036703
(1725350401.400000) can0 18FEE200#db1bc21b131ce01b
(1725350401.400000) can0 18FEE300#e40ac3044101800c
(1725350401.420000) can0 18FEE000#ab2d80100dff0100
(1725350401.420000) can0 18FEE400#6f0272017314c304
(1725350401.440000) can0 18FEE000#642d3a100dff0100
(1725350401.440000) can0 18FEE400#930288018314c504
(1725350401.460000) can0 18FEE000#812d58100dff0100
(1725350401.460000) can0 18FEE400#9b027c018014c304
(1725350401.480000) can0 18FEE000#152d91100dff0100
(1725350401.480000) can0 18FEE400#9302a0018414c404
(1725350401.500000) can0 18FEE000#c82d4c100dff0100
(1725350401.500000) can0 18FEE400#7d02b2018114c504
(1725350401.500000) can0 18FEE100#7103600379036c03
(1725350401.500000) can0 18FEE200#e91bb11b121cc41b
(1725350401.500000) can0 18FEE300#120bc3044801800c
(1725350401.520000) can0 18FEE000#062e5c100cff0100
(1725350401.520000) can0 18FEE400#74027d016c14c304
(1725350401.540000) can0 18FEE000#a72d74100dff0100
(1725350401.540000) can0 18FEE400#9c0296017914c304
(1725350401.560000) can0 18FEE000#1d2d79100dff0100
(1725350401.560000) can0 18FEE400#740277017514c404
(1725350401.580000) can0 18FEE000#d22c7c100cff0100
(1725350401.580000) can0 18FEE400#8a02bb018514c304
(1725350401.600000) can0 18FEE000#0a2e96100dff0100
(1725350401.600000) can0 18FEE400#8e02b1017e14c404
(1725350401.600000) can0 18FEE100#6e03640376036c03
(1725350401.600000) can0 18FEE200#e91b9a1b241cdd1b
(1725350401.600000) can0 18FEE300#060bc4044601800c
(1725350401.620000) can0 18FEE000#d22e61100dff0100
(1725350401.620000) can0 18FEE400#880291018214c404
(1725350401.640000) can0 18FEE000#9d2d3d100cff0100
(1725350401.640000) can0 18FEE400#7b02b4017a14c404
(1725350401.660000) can0 18FEE000#932d36100dff0100
(1725350401.660000) can0 18FEE400#7902a5015c14c204
(1725350401.680000) can0 18FEE000#502d6f100dff0100
(1725350401.680000) can0 18FEE400#a90263017d14c304
(1725350401.700000) can0 18FEE000#af2ca8100dff0100
(1725350401.700000) can0 18FEE400#8a027c016814c504
(1725350401.700000) can0 18FEE100#6e0365037a036c03
(1725350401.700000) can0 18FEE200#101cc51be91bd61b
(1725350401.700000) can0 18FEE300#e10ac4044101800c
(1725350401.720000) can0 18FEE000#982d4d100dff0100
(1725350401.720000) can0 18FEE400#86028e017214c304
(1725350401.740000) can0 18FEE000#ca2c46100cff0100
(1725350401.740000) can0 18FEE400#9a0290019c14c404
(1725350401.760000) can0 18FEE000#e82d82100cff0100
(1725350401.760000) can0 18FEE400#99026b017014c304
(1725350401.780000) can0 18FEE000#482c39100dff0100
(1725350401.780000) can0 18FEE400#8902a7014914c504
(1725350401.800000) can0 18FEE000#152dbf100cff0100
(1725350401.800000) can0 18FEE400#900253017014c504
(1725350401.800000) can0 18FEE100#7003660375036e03
(1725350401.800000) can0 18FEE200#e41bcf1b221ce11b
(1725350401.800000) can0 18FEE300#e20ac4043e01800c
(1725350401.820000) can0 18FEE000#b82c9b100cff0100
(1725350401.820000) can0 18FEE400#700283018314c404
(1725350401.840000) can0 18FEE000#0f2e68100cff0100
(1725350401.840000) can0 18FEE400#6e02b0019c14c204
(1725350401.860000) can0 18FEE000#bc2d7b100dff0100
(1725350401.860000) can0 18FEE400#80028b017214c504
(1725350401.880000) can0 18FEE000#072d68100dff0100
(1725350401.880000) can0 18FEE400#760272016314c304
(1725350401.900000) can0 18FEE000#a62d30100dff0100
(1725350401.900000) can0 18FEE400#9202b7016f14c504
(1725350401.900000) can0 18FEE100#6e036b0373036c03
(1725350401.900000) can0 18FEE200#e91bb01b1b1cdc1b
(1725350401.900000) can0 18FEE300#db0ac4044301800c
(1725350401.920000) can0 18FEE000#382d19100dff0100
(1725350401.920000) can0 18FEE400#9c0291019614c404
(1725350401.940000) can0 18FEE000#aa2d49100cff0100
(1725350401.940000) can0 18FEE400#860298015914c404
(1725350401.960000) can0 18FEE000#032d43100cff0100
(1725350401.960000) can0 18FEE400#87025d017714c304
(1725350401.980000) can0 18FEE000#b22e5f100cff0100
(1725350401.980000) can0 18FEE400#9602a4016814c404
(1725350402.000000) can0 18FEE000#df2c4a100cff0100
(1725350402.000000) can0 18FEE400#ad0272018914c504
(1725350402.000000) can0 18FEE100#7403690380036b03
(1725350402.000000) can0 18FEE200#e11bad1b2e1cc31b
(1725350402.000000) can0 18FEE300#ea0ac3043c01800c
(1725350402.020000) can0 18FEE000#3c2d7b100cff0100
(1725350402.020000) can0 18FEE400#770272017d14c404
(1725350402.040000) can0 18FEE000#432d5f100dff0100
(1725350402.040000) can0 18FEE400#83029d018014c304
(1725350402.060000) can0 18FEE000#ee2d46100cff0100
(1725350402.060000) can0 18FEE400#8b02b6017e14c704
(1725350402.080000) can0 18FEE000#332d88100dff0100
(1725350402.080000) can0 18FEE400#8502c4017014c404
(1725350402.100000) can0 18FEE000#b02d60100cff0100
(1725350402.100000) can0 18FEE400#8b02bd016314c404
(1725350402.100000) can0 18FEE100#6e03650376036b03
(1725350402.100000) can0 18FEE200#cc1bb41b131cd21b
(1725350402.100000) can0 18FEE300#dc0ac3043f01800c
(1725350402.120000) can0 18FEE000#c52d75100cff0100
(1725350402.120000) can0 18FEE400#bb027d018b14c404
(1725350402.140000) can0 18FEE000#342d3c100cff0100
(1725350402.140000) can0 18FEE400#b90272019314c304
(1725350402.160000) can0 18FEE000#eb2d6b100eff0100
(1725350402.160000) can0 18FEE400#92027a017b14c504
(1725350402.180000) can0 18FEE000#042e75100cff0100
(1725350402.180000) can0 18FEE400#8302a4017714c504
(1725350402.200000) can0 18FEE000#572d05100cff0100
(1725350402.200000) can0 18FEE400#77028a017f14c504
(1725350402.200000) can0 18FEE100#7503680378036b03
(1725350402.200000) can0 18FEE200#e91bc51b1f1ccb1b
(1725350402.200000) can0 18FEE300#fd0ac5043f01800c
(1725350402.220000) can0 18FEE000#1e2d53100cff0100
(1725350402.220000) can0 18FEE400#8b02c2017c14c404
(1725350402.240000) can0 18FEE000#9f2c7c100dff0100
(1725350402.240000) can0 18FEE400#a302ae018214c404
(1725350402.260000) can0 18FEE000#d52c3c100cff0100
(1725350402.260000) can0 18FEE400#c502b6017d14c404
(1725350402.280000) can0 18FEE000#6c2d64100cff0100
(1725350402.280000) can0 18FEE400#9f027c016814c304
(1725350402.300000) can0 18FEE000#f52c7e100dff0100
(1725350402.300000) can0 18FEE400#8a02ac017214c604
(1725350402.300000) can0 18FEE100#6b03630378036b03
(1725350402.300000) can0 18FEE200#fa1bbe1b0d1cc91b
(1725350402.300000) can0 18FEE300#cc0ac4044401800c
(1725350402.320000) can0 18FEE000#472d55100dff0100
(1725350402.320000) can0 18FEE400#94027e017e14c404
(1725350402.340000) can0 18FEE000#3b2e94100dff0100
(1725350402.340000) can0 18FEE400#8d02a9019a14c504
(1725350402.360000) can0 18FEE000#102e2c100cff0100
(1725350402.360000) can0 18FEE400#a10256017d14c404
(1725350402.380000) can0 18FEE000#032e86100bff0100
(1725350402.380000) can0 18FEE400#88027d017514c504
(1725350402.400000) can0 18FEE000#8d2c37100dff0100
(1725350402.400000) can0 18FEE400#8802b2017814c404
(1725350402.400000) can0 18FEE100#7503630374036503
(1725350402.400000) can0 18FEE200#f21ba91b371cfd1b
(1725350402.400000) can0 18FEE300#f50ac4044001800c
(1725350402.420000) can0 18FEE000#f32d81100eff0100
(1725350402.420000) can0 18FEE400#64029b018414c404
(1725350402.440000) can0 18FEE000#cc2c82100dff0100
(1725350402.440000) can0 18FEE400#8a0287016d14c504
(1725350402.460000) can0 18FEE000#362c4b100cff0100
(1725350402.460000) can0 18FEE400#a60255016b14c304
(1725350402.480000) can0 18FEE000#8b2c90100dff0100
(1725350402.480000) can0 18FEE400#8b02b5017914c404
(1725350402.500000) can0 18FEE000#972eb1100dff0100
(1725350402.500000) can0 18FEE400#7b02a1016814c504
(1725350402.500000) can0 18FEE100#6e035f0379036a03
(1725350402.500000) can0 18FEE200#f51bc11b1d1ceb1b
(1725350402.500000) can0 18FEE300#f60ac3044801800c
(1725350402.520000) can0 18FEE000#a62d66100cff0100
(1725350402.520000) can0 18FEE400#9f0260018314c204
(1725350402.540000) can0 18FEE000#f12c90100dff0100
(1725350402.540000) can0 18FEE400#b7029e016914c604
(1725350402.560000) can0 18FEE000#a52c45100cff0100
(1725350402.560000) can0 18FEE400#b8028a016714c404
(1725350402.580000) can0 18FEE000#4a2d21100dff0100
(1725350402.580000) can0 18FEE400#9e0284016f14c304
(1725350402.600000) can0 18FEE000#df2d84100dff0100
(1725350402.600000) can0 18FEE400#9c028e018014c404
(1725350402.600000) can0 18FEE100#6b03660379036a03
(1725350402.600000) can0 18FEE200#d91bbb1b091cdb1b
(1725350402.600000) can0 18FEE300#f10ac4044601800c
(1725350402.620000) can0 18FEE000#c92d41100cff0100
(1725350402.620000) can0 18FEE400#b80261017014c404
(1725350402.640000) can0 18FEE000#202d77100cff0100
(1725350402.640000) can0 18FEE400#8302a4018014c504
(1725350402.660000) can0 18FEE000#2e2d33100cff0100
(1725350402.660000) can0 18FEE400#bd027f017214c504
(1725350402.680000) can0 18FEE000#b32c6b100dff0100
(1725350402.680000) can0 18FEE400#840288016814c404
(1725350402.700000) can0 18FEE000#022e86100cff0100
(1725350402.700000) can0 18FEE400#7702a5018c14c304
(1725350402.700000) can0 18FEE100#6d03660377036903
(1725350402.700000) can0 18FEE200#e11ba81b171cd41b
(1725350402.700000) can0 18FEE300#070bc4043d01800c
(1725350402.720000) can0 18FEE000#842c55100cff0100
(1725350402.720000) can0 18FEE400#870268018714c504
(1725350402.740000) can0 18FEE000#352d87100dff0100
(1725350402.740000) can0 18FEE400#930292015714c504
(1725350402.760000) can0 18FEE000#252ea7100dff0100
(1725350402.760000) can0 18FEE400#8102a9016614c404
(1725350402.780000) can0 18FEE000#0f2d86100cff0100
(1725350402.780000) can0 18FEE400#800283016c14c304
(1725350402.800000) can0 18FEE000#392d4e100dff0100
(1725350402.800000) can0 18FEE400#85026e016c14c304
(1725350402.800000) can0 18FEE100#6b03650379036c03
(1725350402.800000) can0 18FEE200#e71bb41b251cd81b
(1725350402.800000) can0 18FEE300#180bc3044101800c
(1725350402.820000) can0 18FEE000#162d87100cff0100
(1725350402.820000) can0 18FEE400#75028e018214c504
(1725350402.840000) can0 18FEE000#932d9c100cff0100
(1725350402.840000) can0 18FEE400#8b02af015514c304
(1725350402.860000) can0 18FEE000#4b2d57100cff0100
(1725350402.860000) can0 18FEE400#88025d017114c404
(1725350402.880000) can0 18FEE000#ec2d95100dff0100
(1725350402.880000) can0 18FEE400#d30276017c14c404
(1725350402.900000) can0 18FEE000#da2cad100cff0100
(1725350402.900000) can0 18FEE400#9b029a017414c504
(1725350402.900000) can0 18FEE100#7003690376036a03
(1725350402.900000) can0 18FEE200#e91ba71b1a1ce11b
(1725350402.900000) can0 18FEE300#f40ac5043e01800c
(1725350402.920000) can0 18FEE000#fc2ca0100cff0100
(1725350402.920000) can0 18FEE400#82029f017014c404
(1725350402.940000) can0 18FEE000#752c6c100cff0100
(1725350402.940000) can0 18FEE400#9c0285018514c404
(1725350402.960000) can0 18FEE000#1f2e69100cff0100
(1725350402.960000) can0 18FEE400#af027b018914c304
(1725350402.980000) can0 18FEE000#182d46100dff0100
(1725350402.980000) can0 18FEE400#860281017314c404
(1725350403.000000) can0 18FEE000#a82d5b100cff0100
(1725350403.000000) can0 18FEE400#890280017914c404
(1725350403.000000) can0 18FEE100#6e0360037d036d03
(1725350403.000000) can0 18FEE200#fb1bb41b2c1cdc1b
(1725350403.000000) can0 18FEE300#0d0bc4044101800c
(1725350403.020000) can0 18FEE000#032ea6100dff0100
(1725350403.020000) can0 18FEE400#a002b7017814c304
(1725350403.040000) can0 18FEE000#932d67100cff0100
(1725350403.040000) can0 18FEE400#8f0291016414c204
(1725350403.060000) can0 18FEE000#1d2e5f100dff0100
(1725350403.060000) can0 18FEE400#72028c017814c304
(1725350403.080000) can0 18FEE000#412e85100dff0100
(1725350403.080000) can0 18FEE400#760272018914c404
(1725350403.100000) can0 18FEE000#272c69100cff0100
(1725350403.100000) can0 18FEE400#a002a2016f14c304
(1725350403.100000) can0 18FEE100#7203650379036b03
(1725350403.100000) can0 18FEE200#f21bab1b0a1ccd1b
(1725350403.100000) can0 18FEE300#d50ac5043b01800c
(1725350403.120000) can0 18FEE000#1b2d95100dff0100
(1725350403.120000) can0 18FEE400#8402ab018014c304
(1725350403.140000) can0 18FEE000#7f2d50100dff0100
(1725350403.140000) can0 18FEE400#a202b5017414c604
(1725350403.160000) can0 18FEE000#542d5e100dff0100
(1725350403.160000) can0 18FEE400#9502af018414c404
(1725350403.180000) can0 18FEE000#fb2c5c100cff0100
(1725350403.180000) can0 18FEE400#7b029d016314c504
(1725350403.200000) can0 18FEE000#4a2d78100cff0100
(1725350403.200000) can0 18FEE400#7b028c017714c404
(1725350403.200000) can0 18FEE100#7303660377036e03
(1725350403.200000) can0 18FEE200#c61bc11b141cce1b
(1725350403.200000) can0 18FEE300#f40ac4043d01800c
(1725350403.220000) can0 18FEE000#e32d55100dff0100
(1725350403.220000) can0 18FEE400#8c02ac018814c204
(1725350403.240000) can0 18FEE000#562d67100cff0100
(1725350403.240000) can0 18FEE400#a302ad016d14c404
(1725350403.260000) can0 18FEE000#e22c79100cff0100
(1725350403.260000) can0 18FEE400#940264017714c304
(1725350403.280000) can0 18FEE000#492d78100dff0100
(1725350403.280000) can0 18FEE400#99029d017e14c304
(1725350403.300000) can0 18FEE000#812c64100cff0100
(1725350403.300000) can0 18FEE400#7802a3017814c304
(1725350403.300000) can0 18FEE100#710362037a036c03
(1725350403.300000) can0 18FEE200#e31bca1b111cd01b
(1725350403.300000) can0 18FEE300#f50ac4043c01800c
(1725350403.320000) can0 18FEE000#7e2c79100dff0100
(1725350403.320000) can0 18FEE400#af029b017914c504
(1725350403.340000) can0 18FEE000#052da4100dff0100
(1725350403.340000) can0 18FEE400#9002a2017d14c504
(1725350403.360000) can0 18FEE000#682d61100cff0100
(1725350403.360000) can0 18FEE400#8502a1015f14c604
(1725350403.380000) can0 18FEE000#422d48100dff0100
(1725350403.380000) can0 18FEE400#a3028e017e14c004
(1725350403.400000) can0 18FEE000#862d65100cff0100
(1725350403.400000) can0 18FEE400#6902a2018a14c504
(1725350403.400000) can0 18FEE100#6e03670372037403
(1725350403.400000) can0 18FEE200#ff1bc21b331cde1b
(1725350403.400000) can0 18FEE300#de0ac5044001800c
(1725350403.420000) can0 18FEE000#a22c70100cff0100
(1725350403.420000) can0 18FEE400#96029c017c14c504
(1725350403.440000) can0 18FEE000#5c2e68100dff0100
(1725350403.440000) can0 18FEE400#6902ac017414c504
(1725350403.460000) can0 18FEE000#252d83100dff0100
(1725350403.460000) can0 18FEE400#8d027b017014c404
(1725350403.480000) can0 18FEE000#102da1100dff0100
(1725350403.480000) can0 18FEE400#87024f016a14c504
(1725350403.500000) can0 18FEE000#e92d71100eff0100
(1725350403.500000) can0 18FEE400#8a029e018714c404
(1725350403.500000) can0 18FEE100#730369037c036d03
(1725350403.500000) can0 18FEE200#da1ba41b0b1cde1b
(1725350403.500000) can0 18FEE300#f00ac4045001800c
(1725350403.520000) can0 18FEE000#2d2dff0f0dff0100
(1725350403.520000) can0 18FEE400#9b0289018514c404
(1725350403.540000) can0 18FEE000#422d7b100dff0100
(1725350403.540000) can0 18FEE400#930285018014c404
(1725350403.560000) can0 18FEE000#942da1100cff0100
(1725350403.560000) can0 18FEE400#91027b016714c404
(1725350403.580000) can0 18FEE000#6a2d78100dff0100
(1725350403.580000) can0 18FEE400#7b02a8017714c504
(1725350403.600000) can0 18FEE000#5e2d87100dff0100
(1725350403.600000) can0 18FEE400#770255017114c204
(1725350403.600000) can0 18FEE100#7203630377036903
(1725350403.600000) can0 18FEE200#fe1bd01b121cbf1b
(1725350403.600000) can0 18FEE300#e30ac4044801800c
(1725350403.620000) can0 18FEE000#772d58100dff0100
(1725350403.620000) can0 18FEE400#bf0288017b14c404
(1725350403.640000) can0 18FEE000#132c9f100bff0100
(1725350403.640000) can0 18FEE400#980255018014c404
(1725350403.660000) can0 18FEE000#ad2c3f100cff0100
(1725350403.660000) can0 18FEE400#7f02aa016b14c504
(1725350403.680000) can0 18FEE000#362d61100cff0100
(1725350403.680000) can0 18FEE400#88029a016c14c404
(1725350403.700000) can0 18FEE000#d92d62100cff0100
(1725350403.700000) can0 18FEE400#990264017a14c204
(1725350403.700000) can0 18FEE100#710363037b036a03
(1725350403.700000) can0 18FEE200#f31bb11b031ce51b
(1725350403.700000) can0 18FEE300#f50ac5044201800c
(1725350403.720000) can0 18FEE000#8e2d3d100dff0100
(1725350403.720000) can0 18FEE400#a002b9016c14c404
(1725350403.740000) can0 18FEE000#2d2e2f100cff0100
(1725350403.740000) can0 18FEE400#8a0262017514c504
(1725350403.760000) can0 18FEE000#a12d95100dff0100
(1725350403.760000) can0 18FEE400#7b028d017714c404
(1725350403.780000) can0 18FEE000#292e44100eff0100
(1725350403.780000) can0 18FEE400#6d028d018014c304
(1725350403.800000) can0 18FEE000#ed2c3c100cff0100
(1725350403.800000) can0 18FEE400#a602bc016814c404
(1725350403.800000) can0 18FEE100#71036c037b036703
(1725350403.800000) can0 18FEE200#d71bba1b2e1ce41b
(1725350403.800000) can0 18FEE300#e50ac5043e01800c
(1725350403.820000) can0 18FEE000#b62c48100cff0100
(1725350403.820000) can0 18FEE400#88027b015e14c404
(1725350403.840000) can0 18FEE000#e52d47100cff0100
(1725350403.840000) can0 18FEE400#a60289017e14c304
(1725350403.860000) can0 18FEE000#ec2d4f100dff0100
(1725350403.860000) can0 18FEE400#620290016f14c504
(1725350403.880000) can0 18FEE000#2e2e82100dff0100
(1725350403.880000) can0 18FEE400#81028e017714c404
(1725350403.900000) can0 18FEE000#192e89100dff0100
(1725350403.900000) can0 18FEE400#880294016c14c604
(1725350403.900000) can0 18FEE100#6b0364037c036d03
(1725350403.900000) can0 18FEE200#e41bb11b241cd71b
(1725350403.900000) can0 18FEE300#fd0ac4044b01800c
(1725350403.920000) can0 18FEE000#922da0100cff0100
(1725350403.920000) can0 18FEE400#a9027a017014c704
(1725350403.940000) can0 18FEE000#512c39100dff0100
(1725350403.940000) can0 18FEE400#9302a9017614c404
(1725350403.960000) can0 18FEE000#922d52100cff0100
(1725350403.960000) can0 18FEE400#8c0282016414c404
(1725350403.980000) can0 18FEE000#f82d57100cff0100
(1725350403.980000) can0 18FEE400#8802b4017f14c504
(1725350404.000000) can0 18FEE000#462d73100cff0100
(1725350404.000000) can0 18FEE400#97028e017114c404
(1725350404.000000) can0 18FEE100#7003660377036f03
(1725350404.000000) can0 18FEE200#ee1bd41b061cd61b
(1725350404.000000) can0 18FEE300#e60ac5043e01800c
(1725350404.020000) can0 18FEE000#a72d89100cff0100
(1725350404.020000) can0 18FEE400#af02a1017314c304
(1725350404.040000) can0 18FEE000#ff2c89100cff0100
(1725350404.040000) can0 18FEE400#6e0294017114c404
(1725350404.060000) can0 18FEE000#292d7e100cff0100
(1725350404.060000) can0 18FEE400#94028d017e14c404
(1725350404.080000) can0 18FEE000#312d6e100cff0100
(1725350404.080000) can0 18FEE400#8602b4018414c404
(1725350404.100000) can0 18FEE000#bf2d56100cff0100
(1725350404.100000) can0 18FEE400#7b0291017d14c404
(1725350404.100000) can0 18FEE100#7203610379036b03
(1725350404.100000) can0 18FEE200#e91bb51b271cc21b
(1725350404.100000) can0 18FEE300#f50ac4043f01800c
(1725350404.120000) can0 18FEE000#6d2da1100cff0100
(1725350404.120000) can0 18FEE400#96028f017814c504
(1725350404.140000) can0 18FEE000#a82d4f100cff0100
(1725350404.140000) can0 18FEE400#6d0297017614c404
(1725350404.160000) can0 18FEE000#552d4c100cff0100
(1725350404.160000) can0 18FEE400#810281017214c504
(1725350404.180000) can0 18FEE000#1d2d25100dff0100
(1725350404.180000) can0 18FEE400#9a02aa017314c404
(1725350404.200000) can0 18FEE000#232e4a100cff0100
(1725350404.200000) can0 18FEE400#8902d2017414c404
(1725350404.200000) can0 18FEE100#7003660377036703
(1725350404.200000) can0 18FEE200#e21bc61b211cc11b
(1725350404.200000) can0 18FEE300#d80ac3044001800c
(1725350404.220000) can0 18FEE000#f02ccf100cff0100
(1725350404.220000) can0 18FEE400#810281016f14c304
(1725350404.240000) can0 18FEE000#eb2c99100dff0100
(1725350404.240000) can0 18FEE400#78028f015b14c404
(1725350404.260000) can0 18FEE000#332e79100cff0100
(1725350404.260000) can0 18FEE400#8102c0019314c404
(1725350404.280000) can0 18FEE000#112e98100cff0100
(1725350404.280000) can0 18FEE400#ab02aa017614c404
(1725350404.300000) can0 18FEE000#4a2d68100dff0100
(1725350404.300000) can0 18FEE400#9a028a018214c504
(1725350404.300000) can0 18FEE100#71035e037b036503
(1725350404.300000) can0 18FEE200#e81ba71b171cc71b
(1725350404.300000) can0 18FEE300#d40ac3044701800c
(1725350404.320000) can0 18FEE000#6d2d7f100cff0100
(1725350404.320000) can0 18FEE400#9902d2018314c304
(1725350404.340000) can0 18FEE000#db2c34100dff0100
(1725350404.340000) can0 18FEE400#8c02a4017114c504
(1725350404.360000) can0 18FEE000#782daa100bff0100
(1725350404.360000) can0 18FEE400#820273019614c504
(1725350404.380000) can0 18FEE000#282d48100cff0100
(1725350404.380000) can0 18FEE400#a302d1017614c404
(1725350404.400000) can0 18FEE000#f42d80100dff0100
(1725350404.400000) can0 18FEE400#7e0276017b14c404
(1725350404.400000) can0 18FEE100#6a03630379036603
(1725350404.400000) can0 18FEE200#e91bd61b121cc41b
(1725350404.400000) can0 18FEE300#ca0ac4044501800c
(1725350404.420000) can0 18FEE000#652d76100cff0100
(1725350404.420000) can0 18FEE400#71026e016414c304
(1725350404.440000) can0 18FEE000#472e90100dff0100
(1725350404.440000) can0 18FEE400#99029b016614c504
(1725350404.460000) can0 18FEE000#3f2d41100cff0100
(1725350404.460000) can0 18FEE400#9a0288017814c204
(1725350404.480000) can0 18FEE000#0b2d8a100cff0100
(1725350404.480000) can0 18FEE400#6f026b017d14c404
(1725350404.500000) can0 18FEE000#7b2d9c100dff0100
(1725350404.500000) can0 18FEE400#8102b5016b14c404
(1725350404.500000) can0 18FEE100#6d0364037b036e03
(1725350404.500000) can0 18FEE200#ff1bc81b211cd21b
(1725350404.500000) can0 18FEE300#d60ac4044601800c
(1725350404.520000) can0 18FEE000#1d2d8f100dff0100
(1725350404.520000) can0 18FEE400#97027e017514c204
(1725350404.540000) can0 18FEE000#c12c76100cff0100
(1725350404.540000) can0 18FEE400#65026d016614c404
(1725350404.560000) can0 18FEE000#d82d68100dff0100
(1725350404.560000) can0 18FEE400#69029e016514c504
(1725350404.580000) can0 18FEE000#cc2d50100dff0100
(1725350404.580000) can0 18FEE400#970295018414c304
(1725350404.600000) can0 18FEE000#ce2c70100eff0100
(1725350404.600000) can0 18FEE400#7a026f016114c304
(1725350404.600000) can0 18FEE100#720362037c036503
(1725350404.600000) can0 18FEE200#ea1bc21b0c1cd11b
(1725350404.600000) can0 18FEE300#ed0ac3044a01800c
(1725350404.620000) can0 18FEE000#442d90100cff0100
(1725350404.620000) can0 18FEE400#8d02a3016914c504
(1725350404.640000) can0 18FEE000#902d7c100dff0100
(1725350404.640000) can0 18FEE400#a202b6017d14c504
(1725350404.660000) can0 18FEE000#702d93100eff0100
(1725350404.660000) can0 18FEE400#9c02c2016214c304
(1725350404.680000) can0 18FEE000#712d51100cff0100
(1725350404.680000) can0 18FEE400#780281017c14c504
(1725350404.700000) can0 18FEE000#9e2d60100cff0100
(1725350404.700000) can0 18FEE400#77028c018a14c404
(1725350404.700000) can0 18FEE100#710361037b036d03
(1725350404.700000) can0 18FEE200#fc1bcb1b251cbe1b
(1725350404.700000) can0 18FEE300#f50ac3044201800c
(1725350404.720000) can0 18FEE000#6c2daf100dff0100
(1725350404.720000) can0 18FEE400#7d02a6016d14c504
(1725350404.740000) can0 18FEE000#ff2d75100cff0100
(1725350404.740000) can0 18FEE400#79029d017414c504
(1725350404.760000) can0 18FEE000#542d3f100dff0100
(1725350404.760000) can0 18FEE400#6e0264018014c404
(1725350404.780000) can0 18FEE000#972d4b100dff0100
(1725350404.780000) can0 18FEE400#970298017c14c404
(1725350404.800000) can0 18FEE000#4d2cb5100cff0100
(1725350404.800000) can0 18FEE400#7b02b8017c14c304
(1725350404.800000) can0 18FEE100#6e03630374037003
(1725350404.800000) can0 18FEE200#e51bb21b0a1ce11b
(1725350404.800000) can0 18FEE300#0c0bc4043801800c
(1725350404.820000) can0 18FEE000#472d6d100dff0100
(1725350404.820000) can0 18FEE400#920295017214c604
(1725350404.840000) can0 18FEE000#b02d55100dff0100
(1725350404.840000) can0 18FEE400#b902a9015414c504
(1725350404.860000) can0 18FEE000#b62c31100cff0100
(1725350404.860000) can0 18FEE400#a402a2018f14c404
(1725350404.880000) can0 18FEE000#5d2d8b100dff0100
(1725350404.880000) can0 18FEE400#8d02a3017114c504
(1725350404.900000) can0 18FEE000#152d90100cff0100
(1725350404.900000) can0 18FEE400#7d0268016514c304
(1725350404.900000) can0 18FEE100#7203690379036a03
(1725350404.900000) can0 18FEE200#f11bc71b101cd41b
(1725350404.900000) can0 18FEE300#130bc5043d01800c
(1725350404.920000) can0 18FEE000#2e2d65100cff0100
(1725350404.920000) can0 18FEE400#a402c3018114c304
(1725350404.940000) can0 18FEE000#642d40100cff0100
(1725350404.940000) can0 18FEE400#7e0281016d14c404
(1725350404.960000) can0 18FEE000#ad2c72100cff0100
(1725350404.960000) can0 18FEE400#93028d018314c304
(1725350404.980000) can0 18FEE000#812da6100eff0100
(1725350404.980000) can0 18FEE400#720281016614c504
(1725350405.000000) can0 18FEE000#1d2e83100cff0100
(1725350405.000000) can0 18FEE400#64029c018b14c404
(1725350405.000000) can0 18FEE100#7103610379036903
(1725350405.000000) can0 18FEE200#fd1bc71b111ce21b
(1725350405.000000) can0 18FEE300#f10ac6043e01800c
(1725350405.020000) can0 18FEE000#142d6f100cff0100
(1725350405.020000) can0 18FEE400#7b02b4015e14c304
(1725350405.040000) can0 18FEE000#902d72100dff0100
(1725350405.040000) can0 18FEE400#860293017b14c404
(1725350405.060000) can0 18FEE000#a12ca2100cff0100
(1725350405.060000) can0 18FEE400#8902a1016614c204
(1725350405.080000) can0 18FEE000#2f2d84100cff0100
(1725350405.080000) can0 18FEE400#860245018514c404
(1725350405.100000) can0 18FEE000#092d3a100cff0100
(1725350405.100000) can0 18FEE400#8902a9019414c404
(1725350405.100000) can0 18FEE100#6d03610374036a03
(1725350405.100000) can0 18FEE200#e91bc91bfc1bd31b
(1725350405.100000) can0 18FEE300#de0ac4043c01800c
(1725350405.120000) can0 18FEE000#902d4a100cff0100
(1725350405.120000) can0 18FEE400#990274017214c504
(1725350405.140000) can0 18FEE000#f82d4a100dff0100
(1725350405.140000) can0 18FEE400#6902af017d14c504
(1725350405.160000) can0 18FEE000#e32c3e100cff0100
(1725350405.160000) can0 18FEE400#7c02a4018614c404
(1725350405.180000) can0 18FEE000#a72d93100bff0100
(1725350405.180000) can0 18FEE400#9e0262017c14c404
(1725350405.200000) can0 18FEE000#5a2d4a100dff0100
(1725350405.200000) can0 18FEE400#9a028a017514c504
(1725350405.200000) can0 18FEE100#6d03640377036603
(1725350405.200000) can0 18FEE200#f41b921b101cc41b
(1725350405.200000) can0 18FEE300#f50ac4044201800c
(1725350405.220000) can0 18FEE000#182d67100dff0100
(1725350405.220000) can0 18FEE400#8b028c019114c404
(1725350405.240000) can0 18FEE000#b02c70100cff0100
(1725350405.240000) can0 18FEE400#68029f018014c604
(1725350405.260000) can0 18FEE000#382d6b100cff0100
(1725350405.260000) can0 18FEE400#8f02a2016a14c504
(1725350405.280000) can0 18FEE000#2c2db3100dff0100
(1725350405.280000) can0 18FEE400#8e02b0016414c404
(1725350405.300000) can0 18FEE000#0f2e4d100cff0100
(1725350405.300000) can0 18FEE400#8f0282017f14c404
(1725350405.300000) can0 18FEE100#6d03660374036b03
(1725350405.300000) can0 18FEE200#e41bb31b111cd41b
(1725350405.300000) can0 18FEE300#e90ac4044001800c
(1725350405.320000) can0 18FEE000#1a2d6a100cff0100
(1725350405.320000) can0 18FEE400#a00299017414c404
(1725350405.340000) can0 18FEE000#282d10100cff0100
(1725350405.340000) can0 18FEE400#a402ac016e14c404
(1725350405.360000) can0 18FEE000#f62c63100cff0100
(1725350405.360000) can0 18FEE400#95027a018014c604
(1725350405.380000) can0 18FEE000#b92e45100dff0100
(1725350405.380000) can0 18FEE400#8e024c017714c704
(1725350405.400000) can0 18FEE000#de2c75100cff0100
(1725350405.400000) can0 18FEE400#6e028a018b14c204
(1725350405.400000) can0 18FEE100#6803610376036e03
(1725350405.400000) can0 18FEE200#ed1bb91b201cdc1b
(1725350405.400000) can0 18FEE300#ed0ac5043d01800c
(1725350405.420000) can0 18FEE000#f12c6e100dff0100
(1725350405.420000) can0 18FEE400#84025b018514c604
(1725350405.440000) can0 18FEE000#162d37100dff0100
(1725350405.440000) can0 18FEE400#9e029f017014c304
(1725350405.460000) can0 18FEE000#cb2cad100dff0100
(1725350405.460000) can0 18FEE400#71029e016d14c404
(1725350405.480000) can0 18FEE000#322d8f100dff0100
(1725350405.480000) can0 18FEE400#820285017014c304
(1725350405.500000) can0 18FEE000#ce2c68100dff0100
(1725350405.500000) can0 18FEE400#7602e4015614c204
(1725350405.500000) can0 18FEE100#7003610379036a03
(1725350405.500000) can0 18FEE200#e71bae1b0e1ce51b
(1725350405.500000) can0 18FEE300#ec0ac4044001800c
(1725350405.520000) can0 18FEE000#112d70100dff0100
(1725350405.520000) can0 18FEE400#6f02be017a14c504
(1725350405.540000) can0 18FEE000#a42d83100dff0100
(1725350405.540000) can0 18FEE400#870288017e14c504
(1725350405.560000) can0 18FEE000#792d32100dff0100
(1725350405.560000) can0 18FEE400#7e0254019414c504
(1725350405.580000) can0 18FEE000#8d2d89100cff0100
(1725350405.580000) can0 18FEE400#7f02a7017014c304
(1725350405.600000) can0 18FEE000#dc2d62100dff0100
(1725350405.600000) can0 18FEE400#830258019214c304
(1725350405.600000) can0 18FEE100#6c03690374036b03
(1725350405.600000) can0 18FEE200#eb1bb11b121ced1b
(1725350405.600000) can0 18FEE300#130bc4044601800c
(1725350405.620000) can0 18FEE000#e32c6c100dff0100
(1725350405.620000) can0 18FEE400#7f02bc017014c404
(1725350405.640000) can0 18FEE000#972e65100dff0100
(1725350405.640000) can0 18FEE400#610276018014c204
(1725350405.660000) can0 18FEE000#b22db1100cff0100
(1725350405.660000) can0 18FEE400#830276017214c304
(1725350405.680000) can0 18FEE000#ad2c67100cff0100
(1725350405.680000) can0 18FEE400#9b02c2017614c604
(1725350405.700000) can0 18FEE000#bf2db8100cff0100
(1725350405.700000) can0 18FEE400#890268015a14c404
(1725350405.700000) can0 18FEE100#6d03640376036c03
(1725350405.700000) can0 18FEE200#ea1bbe1b151ccb1b
(1725350405.700000) can0 18FEE300#e50ac5044201800c
(1725350405.720000) can0 18FEE000#712d39100cff0100
(1725350405.720000) can0 18FEE400#8f027c018014c504
(1725350405.740000) can0 18FEE000#da2c37100dff0100
(1725350405.740000) can0 18FEE400#9802a7016f14c404
(1725350405.760000) can0 18FEE000#b02c46100dff0100
(1725350405.760000) can0 18FEE400#9c0268018a14c204
(1725350405.780000) can0 18FEE000#3b2d4c100dff0100
(1725350405.780000) can0 18FEE400#8d0270017314c404
(1725350405.800000) can0 18FEE000#872d7c100cff0100
(1725350405.800000) can0 18FEE400#8e027e017114c304
(1725350405.800000) can0 18FEE100#6e035e037a036b03
(1725350405.800000) can0 18FEE200#ee1bc41b0f1ccc1b
(1725350405.800000) can0 18FEE300#e40ac4043f01800c
(1725350405.820000) can0 18FEE000#1f2d22100cff0100
(1725350405.820000) can0 18FEE400#7f0299016e14c304
(1725350405.840000) can0 18FEE000#162d36100dff0100
(1725350405.840000) can0 18FEE400#95028c018014c404
(1725350405.860000) can0 18FEE000#f62c38100cff0100
(1725350405.860000) can0 18FEE400#8402b8017114c504
(1725350405.880000) can0 18FEE000#c02d67100dff0100
(1725350405.880000) can0 18FEE400#8e02bb018c14c504
(1725350405.900000) can0 18FEE000#a82b49100dff0100
(1725350405.900000) can0 18FEE400#830277017514c304
(1725350405.900000) can0 18FEE100#6c0362037a036b03
(1725350405.900000) can0 18FEE200#e91bd61b101ceb1b
(1725350405.900000) can0 18FEE300#ef0ac4043b01800c
(1725350405.920000) can0 18FEE000#992d6d100cff0100
(1725350405.920000) can0 18FEE400#a80266018514c404
(1725350405.940000) can0 18FEE000#f92c63100cff0100
(1725350405.940000) can0 18FEE400#6f0267016b14c404
(1725350405.960000) can0 18FEE000#8a2c3b100dff0100
(1725350405.960000) can0 18FEE400#93029b015f14c504
(1725350405.980000) can0 18FEE000#0d2d95100dff0100
(1725350405.980000) can0 18FEE400#850282017514c304
(1725350406.000000) can0 18FEE000#2f2d39100eff0100
(1725350406.000000) can0 18FEE400#8202a5017014c404
(1725350406.000000) can0 18FEE100#7003620374036e03
(1725350406.000000) can0 18FEE200#f71bcd1b1b1cd31b
(1725350406.000000) can0 18FEE300#e10ac3044b01800c
(1725350406.020000) can0 18FEE000#aa2d56100dff0100
(1725350406.020000) can0 18FEE400#850279017814c404
(1725350406.040000) can0 18FEE000#fd2c50100cff0100
(1725350406.040000) can0 18FEE400#6f027d016f14c504
(1725350406.060000) can0 18FEE000#a32c50100cff0100
(1725350406.060000) can0 18FEE400#7c0295017d14c604
(1725350406.080000) can0 18FEE000#8b2c2d100cff0100
(1725350406.080000) can0 18FEE400#a80284017314c504
(1725350406.100000) can0 18FEE000#d52d72100cff0100
(1725350406.100000) can0 18FEE400#94026b017b14c304
(1725350406.100000) can0 18FEE100#6d03600375036a03
(1725350406.100000) can0 18FEE200#dc1bc71bef1bce1b
(1725350406.100000) can0 18FEE300#e20ac5044001800c
(1725350406.120000) can0 18FEE000#732d37100dff0100
(1725350406.120000) can0 18FEE400#b7029d017b14c504
(1725350406.140000) can0 18FEE000#922c46100dff0100
(1725350406.140000) can0 18FEE400#7602a9018014c504
(1725350406.160000) can0 18FEE000#112d98100dff0100
(1725350406.160000) can0 18FEE400#960276018614c504
(1725350406.180000) can0 18FEE000#8d2d78100cff0100
(1725350406.180000) can0 18FEE400#7d0293015e14c604
(1725350406.200000) can0 18FEE000#752d54100dff0100
(1725350406.200000) can0 18FEE400#7a025d017f14c304
(1725350406.200000) can0 18FEE100#7003650379037003
(1725350406.200000) can0 18FEE200#f01bac1b171ce01b
(1725350406.200000) can0 18FEE300#ef0ac3044801800c
(1725350406.220000) can0 18FEE000#032d7c100dff0100
(1725350406.220000) can0 18FEE400#780288018b14c404
(1725350406.240000) can0 18FEE000#402d55100cff0100
(1725350406.240000) can0 18FEE400#96028c015214c504
(1725350406.260000) can0 18FEE000#a02d72100cff0100
(1725350406.260000) can0 18FEE400#890298018e14c304
(1725350406.280000) can0 18FEE000#3a2d35100dff0100
(1725350406.280000) can0 18FEE400#7d02a0018114c404
(1725350406.300000) can0 18FEE000#402d7b100dff0100
(1725350406.300000) can0 18FEE400#940298018014c404
(1725350406.300000) can0 18FEE100#6f03630373036d03
(1725350406.300000) can0 18FEE200#ec1bd31bfb1bdd1b
(1725350406.300000) can0 18FEE300#fc0ac3044201800c
(1725350406.320000) can0 18FEE000#d32b6b100dff0100
(1725350406.320000) can0 18FEE400#9c0280019014c404
(1725350406.340000) can0 18FEE000#bc2c3a100dff0100
(1725350406.340000) can0 18FEE400#a3027b018714c404
(1725350406.360000) can0 18FEE000#1e2e41100cff0100
(1725350406.360000) can0 18FEE400#a402a0018914c304
(1725350406.380000) can0 18FEE000#882c7a100dff0100
(1725350406.380000) can0 18FEE400#a50283017614c404
(1725350406.400000) can0 18FEE000#772d57100cff0100
(1725350406.400000) can0 18FEE400#820256018614c404
(1725350406.400000) can0 18FEE100#6b035d0375036f03
(1725350406.400000) can0 18FEE200#e01bbc1b271cee1b
(1725350406.400000) can0 18FEE300#e50ac5043c01800c
(1725350406.420000) can0 18FEE000#e72c70100dff0100
(1725350406.420000) can0 18FEE400#9402af018814c504
(1725350406.440000) can0 18FEE000#722da0100dff0100
(1725350406.440000) can0 18FEE400#7e028b018f14c504
(1725350406.460000) can0 18FEE000#f72c0a100cff0100
(1725350406.460000) can0 18FEE400#5f0273016a14c504
(1725350406.480000) can0 18FEE000#c62c89100dff0100
(1725350406.480000) can0 18FEE400#93027b015a14c304
(1725350406.500000) can0 18FEE000#fd2c99100dff0100
(1725350406.500000) can0 18FEE400#950274017c14c404
(1725350406.500000) can0 18FEE100#700362037a036f03
(1725350406.500000) can0 18FEE200#df1bb21b271ce11b
(1725350406.500000) can0 18FEE300#e70ac5044301800c
(1725350406.520000) can0 18FEE000#162e80100dff0100
(1725350406.520000) can0 18FEE400#8d027d016a14c404
(1725350406.540000) can0 18FEE000#3e2d62100cff0100
(1725350406.540000) can0 18FEE400#8e027c017d14c304
(1725350406.560000) can0 18FEE000#d02dff0f0cff0100
(1725350406.560000) can0 18FEE400#920268018414c304
(1725350406.580000) can0 18FEE000#262d72100cff0100
(1725350406.580000) can0 18FEE400#9a027c018114c204
(1725350406.600000) can0 18FEE000#332d4f100cff0100
(1725350406.600000) can0 18FEE400#7802a6017814c504
(1725350406.600000) can0 18FEE100#6d035e037c036a03
(1725350406.600000) can0 18FEE200#eb1bc41b261cee1b
(1725350406.600000) can0 18FEE300#e70ac4043d01800c
(1725350406.620000) can0 18FEE000#b32d87100dff0100
(1725350406.620000) can0 18FEE400#7e0293017614c404
(1725350406.640000) can0 18FEE000#142d4e100cff0100
(1725350406.640000) can0 18FEE400#a60289016414c404
(1725350406.660000) can0 18FEE000#972d58100cff0100
(1725350406.660000) can0 18FEE400#a602c6016a14c404
(1725350406.680000) can0 18FEE000#cd2d98100cff0100
(1725350406.680000) can0 18FEE400#ad0266016814c304
(1725350406.700000) can0 18FEE000#d22c9b100eff0100
(1725350406.700000) can0 18FEE400#8a02ab015c14c304
(1725350406.700000) can0 18FEE100#710363037a036803
(1725350406.700000) can0 18FEE200#021cbb1b1c1cd01b
(1725350406.700000) can0 18FEE300#ec0ac2044901800c
(1725350406.720000) can0 18FEE000#172d5c100cff0100
(1725350406.720000) can0 18FEE400#760292018b14c604
(1725350406.740000) can0 18FEE000#5f2d7c100cff0100
(1725350406.740000) can0 18FEE400#900253016214c504
(1725350406.760000) can0 18FEE000#f42c88100cff0100
(1725350406.760000) can0 18FEE400#6802c6018714c404
(1725350406.780000) can0 18FEE000#282da0100cff0100
(1725350406.780000) can0 18FEE400#99028d018514c504
(1725350406.800000) can0 18FEE000#e32d54100dff0100
(1725350406.800000) can0 18FEE400#8c02b2018814c304
(1725350406.800000) can0 18FEE100#6f03640376036a03
(1725350406.800000) can0 18FEE200#f71bb71b0b1ce71b
(1725350406.800000) can0 18FEE300#f70ac3044601800c
(1725350406.820000) can0 18FEE000#cb2c59100dff0100
(1725350406.820000) can0 18FEE400#93028c017414c604
(1725350406.840000) can0 18FEE000#5b2c6a100cff0100
(1725350406.840000) can0 18FEE400#9a0298019c14c304
(1725350406.860000) can0 18FEE000#ee2c48100dff0100
(1725350406.860000) can0 18FEE400#550298017914c404
(1725350406.880000) can0 18FEE000#002d8b100dff0100
(1725350406.880000) can0 18FEE400#8e02a0018014c504
(1725350406.900000) can0 18FEE000#dd2d8a100dff0100
(1725350406.900000) can0 18FEE400#890293017514c104
(1725350406.900000) can0 18FEE100#6e03660376036b03
(1725350406.900000) can0 18FEE200#e31bdc1b071ce41b
(1725350406.900000) can0 18FEE300#fe0ac5044401800c
(1725350406.920000) can0 18FEE000#f42c9f100cff0100
(1725350406.920000) can0 18FEE400#5f02a8018714c404
(1725350406.940000) can0 18FEE000#c22d7f100cff0100
(1725350406.940000) can0 18FEE400#860285016e14c404
(1725350406.960000) can0 18FEE000#0c2d9a100eff0100
(1725350406.960000) can0 18FEE400#84028b016814c604
(1725350406.980000) can0 18FEE000#462d57100dff0100
(1725350406.980000) can0 18FEE400#b802af017814c404
(1725350407.000000) can0 18FEE000#702c98100cff0100
(1725350407.000000) can0 18FEE400#7b0271017214c404
(1725350407.000000) can0 18FEE100#7203630373036c03
(1725350407.000000) can0 18FEE200#f51bae1b231cf51b
(1725350407.000000) can0 18FEE300#fa0ac4043801800c
(1725350407.020000) can0 18FEE000#512d60100eff0100
(1725350407.020000) can0 18FEE400#910290017714c304
(1725350407.040000) can0 18FEE000#732c48100cff0100
(1725350407.040000) can0 18FEE400#83029c018214c204
(1725350407.060000) can0 18FEE000#d02d54100dff0100
(1725350407.060000) can0 18FEE400#830279016f14c304
(1725350407.080000) can0 18FEE000#d22d86100dff0100
(1725350407.080000) can0 18FEE400#b10265016514c304
(1725350407.100000) can0 18FEE000#382d28100cff0100
(1725350407.100000) can0 18FEE400#6e0273016b14c504
(1725350407.100000) can0 18FEE100#730366037d036e03
(1725350407.100000) can0 18FEE200#fd1bb41b111ce71b
(1725350407.100000) can0 18FEE300#010bc2043e01800c
(1725350407.120000) can0 18FEE000#292e75100dff0100
(1725350407.120000) can0 18FEE400#69029e017a14c404
(1725350407.140000) can0 18FEE000#c52c7b100dff0100
(1725350407.140000) can0 18FEE400#ab02af019a14c304
(1725350407.160000) can0 18FEE000#272d7b100cff0100
(1725350407.160000) can0 18FEE400#7c029d017714c404
(1725350407.180000) can0 18FEE000#db2d5e100cff0100
(1725350407.180000) can0 18FEE400#91029a018914c504
(1725350407.200000) can0 18FEE000#252d37100dff0100
(1725350407.200000) can0 18FEE400#8002c4018414c304
(1725350407.200000) can0 18FEE100#710366037a036903
(1725350407.200000) can0 18FEE200#e61bcc1b141cce1b
(1725350407.200000) can0 18FEE300#ea0ac4044401800c
(1725350407.220000) can0 18FEE000#6c2da7100eff0100
(1725350407.220000) can0 18FEE400#91028e018514c404
(1725350407.240000) can0 18FEE000#212c23100dff0100
(1725350407.240000) can0 18FEE400#8e0274018214c404
(1725350407.260000) can0 18FEE000#1a2e80100dff0100
(1725350407.260000) can0 18FEE400#9a02b2017d14c404
(1725350407.280000) can0 18FEE000#522d24100dff0100
(1725350407.280000) can0 18FEE400#9d027d018114c304
(1725350407.300000) can0 18FEE000#ad2d9a100dff0100
(1725350407.300000) can0 18FEE400#80026c015b14c404
(1725350407.300000) can0 18FEE100#7203620377036803
(1725350407.300000) can0 18FEE200#fe1bce1b0f1cdb1b
(1725350407.300000) can0 18FEE300#e30ac3044401800c
(1725350407.320000) can0 18FEE000#d92c66100bff0100
(1725350407.320000) can0 18FEE400#8502a5016f14c504
(1725350407.340000) can0 18FEE000#8f2d51100dff0100
(1725350407.340000) can0 18FEE400#63029f015b14c304
(1725350407.360000) can0 18FEE000#3d2da5100bff0100
(1725350407.360000) can0 18FEE400#78027b016f14c304
(1725350407.380000) can0 18FEE000#872d90100cff0100
(1725350407.380000) can0 18FEE400#99029f019114c504
(1725350407.400000) can0 18FEE000#ff2c6c100dff0100
(1725350407.400000) can0 18FEE400#7d02be017b14c504
(1725350407.400000) can0 18FEE100#6c0362037d036803
(1725350407.400000) can0 18FEE200#f61bc11b241cce1b
(1725350407.400000) can0 18FEE300#e00ac4044101800c
(1725350407.420000) can0 18FEE000#d82c80100eff0100
(1725350407.420000) can0 18FEE400#83029d018514c504
(1725350407.440000) can0 18FEE000#282d91100cff0100
(1725350407.440000) can0 18FEE400#930292019414c304
(1725350407.460000) can0 18FEE000#722d33100dff0100
(1725350407.460000) can0 18FEE400#b10297018a14c504
(1725350407.480000) can0 18FEE000#fd2d28100cff0100
(1725350407.480000) can0 18FEE400#8502d2016d14c404
(1725350407.500000) can0 18FEE000#492e6a100dff0100
(1725350407.500000) can0 18FEE400#7c0299016914c304
(1725350407.500000) can0 18FEE100#7103610375036903
(1725350407.500000) can0 18FEE200#ee1bb11b0f1cde1b
(1725350407.500000) can0 18FEE300#080bc6044801800c
(1725350407.520000) can0 18FEE000#822cad100cff0100
(1725350407.520000) can0 18FEE400#8402a8016514c504
(1725350407.540000) can0 18FEE000#0d2d6f100cff0100
(1725350407.540000) can0 18FEE400#5f02c4017814c404
(1725350407.560000) can0 18FEE000#772d4e100dff0100
(1725350407.560000) can0 18FEE400#82025f018714c404
(1725350407.580000) can0 18FEE000#602c88100cff0100
(1725350407.580000) can0 18FEE400#720269018214c504
(1725350407.600000) can0 18FEE000#082d4f100dff0100
(1725350407.600000) can0 18FEE400#8e028d018f14c504
(1725350407.600000) can0 18FEE100#71035c0377036d03
(1725350407.600000) can0 18FEE200#d81bc91b031cdd1b
(1725350407.600000) can0 18FEE300#df0ac2044201800c
(1725350407.620000) can0 18FEE000#912c75100dff0100
(1725350407.620000) can0 18FEE400#97028d017514c304
(1725350407.640000) can0 18FEE000#e92c81100cff0100
(1725350407.640000) can0 18FEE400#9f02a6019414c404
(1725350407.660000) can0 18FEE000#ef2c53100dff0100
(1725350407.660000) can0 18FEE400#6a0264016814c504
(1725350407.680000) can0 18FEE000#3f2d69100dff0100
(1725350407.680000) can0 18FEE400#9702e5015c14c604
(1725350407.700000) can0 18FEE000#db2c32100cff0100
(1725350407.700000) can0 18FEE400#5c028e017e14c404
(1725350407.700000) can0 18FEE100#7203650376036903
(1725350407.700000) can0 18FEE200#e31bc51b291cd61b
(1725350407.700000) can0 18FEE300#e20ac4043b01800c
(1725350407.720000) can0 18FEE000#132d95100dff0100
(1725350407.720000) can0 18FEE400#74028e018514c504
(1725350407.740000) can0 18FEE000#0f2dac100cff0100
(1725350407.740000) can0 18FEE400#4e02b6017c14c404
(1725350407.760000) can0 18FEE000#db2c99100cff0100
(1725350407.760000) can0 18FEE400#b4026e016e14c504
(1725350407.780000) can0 18FEE000#362d43100cff0100
(1725350407.780000) can0 18FEE400#900281019114c504
(1725350407.800000) can0 18FEE000#092d43100dff0100
(1725350407.800000) can0 18FEE400#8402b9017e14c404
(1725350407.800000) can0 18FEE100#6f036c0378036703
(1725350407.800000) can0 18FEE200#cf1bb11b2c1cd61b
(1725350407.800000) can0 18FEE300#be0ac3044501800c
(1725350407.820000) can0 18FEE000#742dc1100dff0100
(1725350407.820000) can0 18FEE400#8a0264018514c504
(1725350407.840000) can0 18FEE000#8a2c86100cff0100
(1725350407.840000) can0 18FEE400#9a029f016514c304
(1725350407.860000) can0 18FEE000#832d8b100dff0100
(1725350407.860000) can0 18FEE400#7f0292018f14c604
(1725350407.880000) can0 18FEE000#9f2d3f100cff0100
(1725350407.880000) can0 18FEE400#920281017814c404
(1725350407.900000) can0 18FEE000#102d79100dff0100
(1725350407.900000) can0 18FEE400#8f02a2017814c304
(1725350407.900000) can0 18FEE100#7503670377036f03
(1725350407.900000) can0 18FEE200#d91bc21b0e1cd21b
(1725350407.900000) can0 18FEE300#180bc4044401800c
(1725350407.920000) can0 18FEE000#772d5a100cff0100
(1725350407.920000) can0 18FEE400#650273018914c404
(1725350407.940000) can0 18FEE000#e02c61100dff0100
(1725350407.940000) can0 18FEE400#8d027d017314c504
(1725350407.960000) can0 18FEE000#372d69100dff0100
(1725350407.960000) can0 18FEE400#8b0270016714c604
(1725350407.980000) can0 18FEE000#322d64100cff0100
(1725350407.980000) can0 18FEE400#75028a017614c404
(1725350408.000000) can0 18FEE000#b12d4e100cff0100
(1725350408.000000) can0 18FEE400#b5027a018914c504
(1725350408.000000) can0 18FEE100#7103670377036b03
(1725350408.000000) can0 18FEE200#eb1bba1b201cd41b
(1725350408.000000) can0 18FEE300#fc0ac4043e01800c
(1725350408.020000) can0 18FEE000#bd2c7f100dff0100
(1725350408.020000) can0 18FEE400#8a0264017f14c404
(1725350408.040000) can0 18FEE000#242d5d100bff0100
(1725350408.040000) can0 18FEE400#8702ad017e14c404
(1725350408.060000) can0 18FEE000#272d6d100dff0100
(1725350408.060000) can0 18FEE400#9d0282015c14c504
(1725350408.080000) can0 18FEE000#7c2d74100cff0100
(1725350408.080000) can0 18FEE400#9f025f017714c504
(1725350408.100000) can0 18FEE000#b52d5d100dff0100
(1725350408.100000) can0 18FEE400#8b0274017414c404
(1725350408.100000) can0 18FEE100#7203610374036e03
(1725350408.100000) can0 18FEE200#ef1bd71b0c1ce91b
(1725350408.100000) can0 18FEE300#010bc4044501800c
(1725350408.120000) can0 18FEE000#532d3e100dff0100
(1725350408.120000) can0 18FEE400#8c029c017614c304
(1725350408.140000) can0 18FEE000#882e6f100dff0100
(1725350408.140000) can0 18FEE400#7102aa016c14c404
(1725350408.160000) can0 18FEE000#442d10100dff0100
(1725350408.160000) can0 18FEE400#620296016914c404
(1725350408.180000) can0 18FEE000#b02d8b100dff0100
(1725350408.180000) can0 18FEE400#ad0299016f14c404
(1725350408.200000) can0 18FEE000#6d2d28100dff0100
(1725350408.200000) can0 18FEE400#7402c6017514c504
(1725350408.200000) can0 18FEE100#7003670379036903
(1725350408.200000) can0 18FEE200#e41bd11b1c1ce31b
(1725350408.200000) can0 18FEE300#fc0ac4044401800c
(1725350408.220000) can0 18FEE000#452d94100cff0100
(1725350408.220000) can0 18FEE400#7e02b3017e14c304
(1725350408.240000) can0 18FEE000#ea2d8c100dff0100
(1725350408.240000) can0 18FEE400#940271017814c204
(1725350408.260000) can0 18FEE000#b62dfd0f0dff0100
(1725350408.260000) can0 18FEE400#890248015f14c604
(1725350408.280000) can0 18FEE000#ed2c50100dff0100
(1725350408.280000) can0 18FEE400#8702c2016514c404
(1725350408.300000) can0 18FEE000#292e54100dff0100
(1725350408.300000) can0 18FEE400#8c026d016814c404
(1725350408.300000) can0 18FEE100#6c03690375036d03
(1725350408.300000) can0 18FEE200#d11baf1b191cc91b
(1725350408.300000) can0 18FEE300#eb0ac3044501800c
(1725350408.320000) can0 18FEE000#6b2c81100cff0100
(1725350408.320000) can0 18FEE400#6a0286016514c404
(1725350408.340000) can0 18FEE000#9c2c55100cff0100
(1725350408.340000) can0 18FEE400#960289019214c404
(1725350408.360000) can0 18FEE000#562da7100dff0100
(1725350408.360000) can0 18FEE400#7d028f017f14c404
(1725350408.380000) can0 18FEE000#7b2d7b100dff0100
(1725350408.380000) can0 18FEE400#7b029e016414c504
(1725350408.400000) can0 18FEE000#8b2d7b100dff0100
(1725350408.400000) can0 18FEE400#9202a2017014c504
(1725350408.400000) can0 18FEE100#6c035f0378036a03
(1725350408.400000) can0 18FEE200#f31bcc1b1c1ccc1b
(1725350408.400000) can0 18FEE300#fd0ac3044201800c
(1725350408.420000) can0 18FEE000#272d69100dff0100
(1725350408.420000) can0 18FEE400#760289018614c304
(1725350408.440000) can0 18FEE000#d62d68100dff0100
(1725350408.440000) can0 18FEE400#760287017814c404
(1725350408.460000) can0 18FEE000#b62c5b100dff0100
(1725350408.460000) can0 18FEE400#8802c2016d14c404
(1725350408.480000) can0 18FEE000#bd2d64100cff0100
(1725350408.480000) can0 18FEE400#770293016514c404
(1725350408.500000) can0 18FEE000#a72c71100dff0100
(1725350408.500000) can0 18FEE400#a00292018714c404
(1725350408.500000) can0 18FEE100#7203600377036903
(1725350408.500000) can0 18FEE200#f91ba21b101ce11b
(1725350408.500000) can0 18FEE300#f30ac2043e01800c
(1725350408.520000) can0 18FEE000#542d70100cff0100
(1725350408.520000) can0 18FEE400#b5028b016e14c504
(1725350408.540000) can0 18FEE000#222e28100dff0100
(1725350408.540000) can0 18FEE400#8802b7017b14c504
(1725350408.560000) can0 18FEE000#602d4e100cff0100
(1725350408.560000) can0 18FEE400#990237018c14c404
(1725350408.580000) can0 18FEE000#032e43100dff0100
(1725350408.580000) can0 18FEE400#aa0298018814c404
(1725350408.600000) can0 18FEE000#a12d76100dff0100
(1725350408.600000) can0 18FEE400#93028b017c14c304
(1725350408.600000) can0 18FEE100#7203630377036603
(1725350408.600000) can0 18FEE200#f11baa1b0a1cd41b
(1725350408.600000) can0 18FEE300#fd0ac5044401800c
(1725350408.620000) can0 18FEE000#092ea9100cff0100
(1725350408.620000) can0 18FEE400#a902c0016c14c404
(1725350408.640000) can0 18FEE000#312d5d100cff0100
(1725350408.640000) can0 18FEE400#a202ae016a14c304
(1725350408.660000) can0 18FEE000#3f2e71100cff0100
(1725350408.660000) can0 18FEE400#6e02a7016d14c404
(1725350408.680000) can0 18FEE000#5c2d5a100cff0100
(1725350408.680000) can0 18FEE400#8c0269016c14c504
(1725350408.700000) can0 18FEE000#822d90100cff0100
(1725350408.700000) can0 18FEE400#7d02b2018c14c404
(1725350408.700000) can0 18FEE100#6e0365037a037103
(1725350408.700000) can0 18FEE200#f11baf1b0b1cc61b
(1725350408.700000) can0 18FEE300#0b0bc4043a01800c
(1725350408.720000) can0 18FEE000#122d74100cff0100
(1725350408.720000) can0 18FEE400#85028f016e14c504
(1725350408.740000) can0 18FEE000#9d2e5e100dff0100
(1725350408.740000) can0 18FEE400#a20270016e14c504
(1725350408.760000) can0 18FEE000#5b2d70100dff0100
(1725350408.760000) can0 18FEE400#6f02dd016914c604
(1725350408.780000) can0 18FEE000#4c2d73100cff0100
(1725350408.780000) can0 18FEE400#800283015e14c404
(1725350408.800000) can0 18FEE000#3d2d74100dff0100
(1725350408.800000) can0 18FEE400#88027a016a14c304
(1725350408.800000) can0 18FEE100#6a03690372036d03
(1725350408.800000) can0 18FEE200#e71bcb1b1e1cd71b
(1725350408.800000) can0 18FEE300#ea0ac2044301800c
(1725350408.820000) can0 18FEE000#512d57100dff0100
(1725350408.820000) can0 18FEE400#970279016d14c604
(1725350408.840000) can0 18FEE000#532c3f100cff0100
(1725350408.840000) can0 18FEE400#8e0299016c14c404
(1725350408.860000) can0 18FEE000#832d6e100dff0100
(1725350408.860000) can0 18FEE400#8e02a3017214c504
(1725350408.880000) can0 18FEE000#992d30100cff0100
(1725350408.880000) can0 18FEE400#76026f018314c304
(1725350408.900000) can0 18FEE000#e02c25100cff0100
(1725350408.900000) can0 18FEE400#8f0277018214c604
(1725350408.900000) can0 18FEE100#7203660379037003
(1725350408.900000) can0 18FEE200#dc1bbf1b1c1cc11b
(1725350408.900000) can0 18FEE300#ec0ac3043e01800c
(1725350408.920000) can0 18FEE000#362d4e100cff0100
(1725350408.920000) can0 18FEE400#990265018714c304
(1725350408.940000) can0 18FEE000#372dad100dff0100
(1725350408.940000) can0 18FEE400#7702a8017b14c404
(1725350408.960000) can0 18FEE000#d92c55100dff0100
(1725350408.960000) can0 18FEE400#98028a017314c504
(1725350408.980000) can0 18FEE000#832d8d100dff0100
(1725350408.980000) can0 18FEE400#6d02a3016414c404
(1725350409.000000) can0 18FEE000#e42d54100cff0100
(1725350409.000000) can0 18FEE400#7b0264016d14c404
(1725350409.000000) can0 18FEE100#7003640378036c03
(1725350409.000000) can0 18FEE200#f21ba61b261cb91b
(1725350409.000000) can0 18FEE300#e90ac5043d01800c
(1725350409.020000) can0 18FEE000#412e2c100dff0100
(1725350409.020000) can0 18FEE400#9502b4015c14c504
(1725350409.040000) can0 18FEE000#602db9100cff0100
(1725350409.040000) can0 18FEE400#8a02b8018814c304
(1725350409.060000) can0 18FEE000#c52d67100dff0100
(1725350409.060000) can0 18FEE400#990283017814c304
(1725350409.080000) can0 18FEE000#da2d7d100dff0100
(1725350409.080000) can0 18FEE400#8f0294016214c504
(1725350409.100000) can0 18FEE000#ad2d6a100dff0100
(1725350409.100000) can0 18FEE400#8c0291017c14c204
(1725350409.100000) can0 18FEE100#6f03620376036603
(1725350409.100000) can0 18FEE200#f61ba81b0f1cbb1b
(1725350409.100000) can0 18FEE300#e30ac5044401800c
(1725350409.120000) can0 18FEE000#b92d57100dff0100
(1725350409.120000) can0 18FEE400#7f029f018514c504
(1725350409.140000) can0 18FEE000#932d50100cff0100
(1725350409.140000) can0 18FEE400#830293018114c304
(1725350409.160000) can0 18FEE000#322d73100dff0100
(1725350409.160000) can0 18FEE400#690281016314c604
(1725350409.180000) can0 18FEE000#302d4c100dff0100
(1725350409.180000) can0 18FEE400#570261017a14c504
(1725350409.200000) can0 18FEE000#a22d53100cff0100
(1725350409.200000) can0 18FEE400#6e028e016b14c404
(1725350409.200000) can0 18FEE100#6b03630377036903
(1725350409.200000) can0 18FEE200#f71bc21b1e1cfb1b
(1725350409.200000) can0 18FEE300#fb0ac2044201800c
(1725350409.220000) can0 18FEE000#fa2d6b100cff0100
(1725350409.220000) can0 18FEE400#8a02be017414c304
(1725350409.240000) can0 18FEE000#022d80100cff0100
(1725350409.240000) can0 18FEE400#620291017e14c404
(1725350409.260000) can0 18FEE000#ea2c63100cff0100
(1725350409.260000) can0 18FEE400#9502ac016014c404
(1725350409.280000) can0 18FEE000#5e2d1e100dff0100
(1725350409.280000) can0 18FEE400#8f0273018614c404
(1725350409.300000) can0 18FEE000#6c2d51100dff0100
(1725350409.300000) can0 18FEE400#790271017414c404
(1725350409.300000) can0 18FEE100#7003640373036b03
(1725350409.300000) can0 18FEE200#cc1bbe1b3b1ccb1b
(1725350409.300000) can0 18FEE300#e00ac5044201800c
(1725350409.320000) can0 18FEE000#b82d55100cff0100
(1725350409.320000) can0 18FEE400#65028e016d14c604
(1725350409.340000) can0 18FEE000#7f2d3f100cff0100
(1725350409.340000) can0 18FEE400#8e0265018514c304
(1725350409.360000) can0 18FEE000#732c3c100cff0100
(1725350409.360000) can0 18FEE400#a0028e017214c304
(1725350409.380000) can0 18FEE000#b32c5c100dff0100
(1725350409.380000) can0 18FEE400#780268017f14c504
(1725350409.400000) can0 18FEE000#392d4f100dff0100
(1725350409.400000) can0 18FEE400#990265016314c404
(1725350409.400000) can0 18FEE100#77035f037a036b03
(1725350409.400000) can0 18FEE200#f31bc61b2d1cd81b
(1725350409.400000) can0 18FEE300#1b0bc3044501800c
(1725350409.420000) can0 18FEE000#a62d51100dff0100
(1725350409.420000) can0 18FEE400#9e02a5018c14c404
(1725350409.440000) can0 18FEE000#1a2e62100dff0100
(1725350409.440000) can0 18FEE400#8f027f018314c504
(1725350409.460000) can0 18FEE000#9e2d53100cff0100
(1725350409.460000) can0 18FEE400#760295018914c704
(1725350409.480000) can0 18FEE000#242e55100dff0100
(1725350409.480000) can0 18FEE400#9e02e0016514c504
(1725350409.500000) can0 18FEE000#842c65100cff0100
(1725350409.500000) can0 18FEE400#63027e018014c504
(1725350409.500000) can0 18FEE100#7103660374036b03
(1725350409.500000) can0 18FEE200#f91bae1b291ced1b
(1725350409.500000) can0 18FEE300#e70ac5043a01800c
(1725350409.520000) can0 18FEE000#d42d8f100dff0100
(1725350409.520000) can0 18FEE400#7c028e018914c404
(1725350409.540000) can0 18FEE000#2b2d89100dff0100
(1725350409.540000) can0 18FEE400#880273016c14c304
(1725350409.560000) can0 18FEE000#d72d2f100dff0100
(1725350409.560000) can0 18FEE400#83029b017814c204
(1725350409.580000) can0 18FEE000#1c2d8b100cff0100
(1725350409.580000) can0 18FEE400#ae027c016714c404
(1725350409.600000) can0 18FEE000#1a2d5b100cff0100
(1725350409.600000) can0 18FEE400#750288016a14c504
(1725350409.600000) can0 18FEE100#6b03630374036803
(1725350409.600000) can0 18FEE200#191ce01b3a1cd51b
(1725350409.600000) can0 18FEE300#da0ac5043c01800c
(1725350409.620000) can0 18FEE000#432d75100cff0100
(1725350409.620000) can0 18FEE400#ae0245016b14c404
(1725350409.640000) can0 18FEE000#b02cfa0f0dff0100
(1725350409.640000) can0 18FEE400#7802ac016514c304
(1725350409.660000) can0 18FEE000#632d90100dff0100
(1725350409.660000) can0 18FEE400#a702cb015e14c504
(1725350409.680000) can0 18FEE000#802d60100dff0100
(1725350409.680000) can0 18FEE400#a10274015514c304
(1725350409.700000) can0 18FEE000#f12c4f100cff0100
(1725350409.700000) can0 18FEE400#7e0271018b14c404
(1725350409.700000) can0 18FEE100#6d0360037b036803
(1725350409.700000) can0 18FEE200#eb1bd21b111ce01b
(1725350409.700000) can0 18FEE300#040bc5043801800c
(1725350409.720000) can0 18FEE000#fa2c5a100cff0100
(1725350409.720000) can0 18FEE400#7e0292017514c304
(1725350409.740000) can0 18FEE000#1d2d7a100cff0100
(1725350409.740000) can0 18FEE400#9502b3017a14c404
(1725350409.760000) can0 18FEE000#882d7c100dff0100
(1725350409.760000) can0 18FEE400#8a02b2017214c404
(1725350409.780000) can0 18FEE000#a42c37100dff0100
(1725350409.780000) can0 18FEE400#7e02c6018c14c404
(1725350409.800000) can0 18FEE000#682d8d100dff0100
(1725350409.800000) can0 18FEE400#7302bc018214c604
(1725350409.800000) can0 18FEE100#7303660379036603
(1725350409.800000) can0 18FEE200#041cb71b1a1cda1b
(1725350409.800000) can0 18FEE300#050bc4044601800c
(1725350409.820000) can0 18FEE000#4b2d76100dff0100
(1725350409.820000) can0 18FEE400#91029a017314c404
(1725350409.840000) can0 18FEE000#072d4b100cff0100
(1725350409.840000) can0 18FEE400#a7027d019214c304
(1725350409.860000) can0 18FEE000#5a2d4f100cff0100
(1725350409.860000) can0 18FEE400#6a026f017014c404
(1725350409.880000) can0 18FEE000#e02d6b100dff0100
(1725350409.880000) can0 18FEE400#7e02c5017614c304
(1725350409.900000) can0 18FEE000#4f2d12100dff0100
(1725350409.900000) can0 18FEE400#95028a018f14c504
(1725350409.900000) can0 18FEE100#7403600376037103
(1725350409.900000) can0 18FEE200#fc1bb71b131ce01b
(1725350409.900000) can0 18FEE300#0c0bc5044501800c
(1725350409.920000) can0 18FEE000#cc2c58100dff0100
(1725350409.920000) can0 18FEE400#9902ba016b14c404
(1725350409.940000) can0 18FEE000#9a2c68100cff0100
(1725350409.940000) can0 18FEE400#7c028d019214c504
(1725350409.960000) can0 18FEE000#292c60100cff0100
(1725350409.960000) can0 18FEE400#97028d016514c404
(1725350409.980000) can0 18FEE000#b42d9c100cff0100
(1725350409.980000) can0 18FEE400#940284017414c404
(1725350410.000000) can0 18FEE000#1e2d69100cff0100
(1725350410.000000) can0 18FEE400#ab02a9018214c404
(1725350410.000000) can0 18FEE100#700366037a036d03
(1725350410.000000) can0 18FEE200#001cbe1b251cd51b
(1725350410.000000) can0 18FEE300#040bc5043d01800c
(1725350410.020000) can0 18FEE000#142d4e100dff0100
(1725350410.020000) can0 18FEE400#6d0296017614c504
(1725350410.040000) can0 18FEE000#832c52100cff0100
(1725350410.040000) can0 18FEE400#8c025d017814c404
(1725350410.060000) can0 18FEE000#042e2c100eff0100
(1725350410.060000) can0 18FEE400#b40247017814c604
(1725350410.080000) can0 18FEE000#8c2da3100dff0100
(1725350410.080000) can0 18FEE400#87026b018114c404
(1725350410.100000) can0 18FEE000#652d4b100dff0100
(1725350410.100000) can0 18FEE400#7b029d017c14c404
(1725350410.100000) can0 18FEE100#6f03620376036e03
(1725350410.100000) can0 18FEE200#d81bbb1b121ce51b
(1725350410.100000) can0 18FEE300#ec0ac5044301800c
(1725350410.120000) can0 18FEE000#0c2e7d100dff0100
(1725350410.120000) can0 18FEE400#7d0278018e14c304
(1725350410.140000) can0 18FEE000#ef2d42100cff0100
(1725350410.140000) can0 18FEE400#9502bc017d14c404
(1725350410.160000) can0 18FEE000#e72c5d100cff0100
(1725350410.160000) can0 18FEE400#6c02aa016e14c404
(1725350410.180000) can0 18FEE000#4e2c8e100dff0100
(1725350410.180000) can0 18FEE400#890272016c14c204
(1725350410.200000) can0 18FEE000#972d64100dff0100
(1725350410.200000) can0 18FEE400#750286016614c404
(1725350410.200000) can0 18FEE100#6d03650375036b03
(1725350410.200000) can0 18FEE200#f71bc21b1f1cd01b
(1725350410.200000) can0 18FEE300#c90ac4044201800c
(1725350410.220000) can0 18FEE000#a02d5b100cff0100
(1725350410.220000) can0 18FEE400#8a02c8017714c404
(1725350410.240000) can0 18FEE000#f22c95100cff0100
(1725350410.240000) can0 18FEE400#7d02a2017614c504
(1725350410.260000) can0 18FEE000#362dad100cff0100
(1725350410.260000) can0 18FEE400#8702b7018114c204
(1725350410.280000) can0 18FEE000#812d80100cff0100
(1725350410.280000) can0 18FEE400#87029a018014c304
(1725350410.300000) can0 18FEE000#b52d76100dff0100
(1725350410.300000) can0 18FEE400#9a0263017514c404
(1725350410.300000) can0 18FEE100#70036b0379036b03
(1725350410.300000) can0 18FEE200#d61bb81b1d1cc71b
(1725350410.300000) can0 18FEE300#ed0ac4044301800c
(1725350410.320000) can0 18FEE000#512d79100dff0100
(1725350410.320000) can0 18FEE400#8d027f017b14c404
(1725350410.340000) can0 18FEE000#8d2da2100dff0100
(1725350410.340000) can0 18FEE400#800297017214c304
(1725350410.360000) can0 18FEE000#a62d4d100dff0100
(1725350410.360000) can0 18FEE400#7502b0016c14c504
(1725350410.380000) can0 18FEE000#d52d37100cff0100
(1725350410.380000) can0 18FEE400#880284019b14c404
(1725350410.400000) can0 18FEE000#b82d97100cff0100
(1725350410.400000) can0 18FEE400#8a027c018114c304
(1725350410.400000) can0 18FEE100#7303630373036a03
(1725350410.400000) can0 18FEE200#ef1b9a1b041cd91b
(1725350410.400000) can0 18FEE300#f90ac5044101800c
(1725350410.420000) can0 18FEE000#a52d2b100dff0100
(1725350410.420000) can0 18FEE400#780281016414c304
(1725350410.440000) can0 18FEE000#4e2d2a100dff0100
(1725350410.440000) can0 18FEE400#6f028b018014c604
(1725350410.460000) can0 18FEE000#512c81100cff0100
(1725350410.460000) can0 18FEE400#860286018814c204
(1725350410.480000) can0 18FEE000#c02d6f100dff0100
(1725350410.480000) can0 18FEE400#940299016114c404
(1725350410.500000) can0 18FEE000#942d70100cff0100
(1725350410.500000) can0 18FEE400#850272018e14c604
(1725350410.500000) can0 18FEE100#700360037e036b03
(1725350410.500000) can0 18FEE200#e11ba01bfb1bd11b
(1725350410.500000) can0 18FEE300#050bc3044101800c
(1725350410.520000) can0 18FEE000#082c59100dff0100
(1725350410.520000) can0 18FEE400#a40298017014c404
(1725350410.540000) can0 18FEE000#ad2c6f100dff0100
(1725350410.540000) can0 18FEE400#6f0282018414c404
(1725350410.560000) can0 18FEE000#e92d60100cff0100
(1725350410.560000) can0 18FEE400#6a02be017414c504
(1725350410.580000) can0 18FEE000#962d67100cff0100
(1725350410.580000) can0 18FEE400#a502aa018c14c304
(1725350410.600000) can0 18FEE000#dc2c30100dff0100
(1725350410.600000) can0 18FEE400#7902b8016814c304
(1725350410.600000) can0 18FEE100#77035f0378036703
(1725350410.600000) can0 18FEE200#d21bae1b2c1cd21b
(1725350410.600000) can0 18FEE300#000bc5044501800c
(1725350410.620000) can0 18FEE000#852d5c100cff0100
(1725350410.620000) can0 18FEE400#98029f018014c404
(1725350410.640000) can0 18FEE000#3b2d8d100dff0100
(1725350410.640000) can0 18FEE400#8802a3016c14c504
(1725350410.660000) can0 18FEE000#7e2c82100dff0100
(1725350410.660000) can0 18FEE400#89027a017914c404
(1725350410.680000) can0 18FEE000#8c2d4e100dff0100
(1725350410.680000) can0 18FEE400#9b02cb016714c404
(1725350410.700000) can0 18FEE000#002d57100dff0100
(1725350410.700000) can0 18FEE400#a50298015e14c604
(1725350410.700000) can0 18FEE100#7303640377036803
(1725350410.700000) can0 18FEE200#ed1bc01b1f1ce81b
(1725350410.700000) can0 18FEE300#e50ac3044301800c
(1725350410.720000) can0 18FEE000#fe2c88100cff0100
(1725350410.720000) can0 18FEE400#a802a9016b14c404
(1725350410.740000) can0 18FEE000#ff2c71100cff0100
(1725350410.740000) can0 18FEE400#7702b4017614c404
(1725350410.760000) can0 18FEE000#712d33100dff0100
(1725350410.760000) can0 18FEE400#8d029a017214c504
(1725350410.780000) can0 18FEE000#392d65100cff0100
(1725350410.780000) can0 18FEE400#9402a9016314c604
(1725350410.800000) can0 18FEE000#eb2d5f100dff0100
(1725350410.800000) can0 18FEE400#9e025d017414c404
(1725350410.800000) can0 18FEE100#70036a0379036503
(1725350410.800000) can0 18FEE200#ee1bb51b011ccb1b
(1725350410.800000) can0 18FEE300#f60ac3044c01800c
(1725350410.820000) can0 18FEE000#812d52100dff0100
(1725350410.820000) can0 18FEE400#ae028e018914c504
(1725350410.840000) can0 18FEE000#f42c4d100cff0100
(1725350410.840000) can0 18FEE400#90029b018814c604
(1725350410.860000) can0 18FEE000#2d2e8b100cff0100
(1725350410.860000) can0 18FEE400#900272017a14c604
(1725350410.880000) can0 18FEE000#3e2d6c100dff0100
(1725350410.880000) can0 18FEE400#a502aa016014c404
(1725350410.900000) can0 18FEE000#322d20100bff0100
(1725350410.900000) can0 18FEE400#7f027f015514c304
(1725350410.900000) can0 18FEE100#73036a0375036b03
(1725350410.900000) can0 18FEE200#041ccc1b011cd91b
(1725350410.900000) can0 18FEE300#f80ac2043701800c
(1725350410.920000) can0 18FEE000#5f2d79100cff0100
(1725350410.920000) can0 18FEE400#920282018114c504
(1725350410.940000) can0 18FEE000#142d4b100cff0100
(1725350410.940000) can0 18FEE400#70029a018214c504
(1725350410.960000) can0 18FEE000#7a2d5d100cff0100
(1725350410.960000) can0 18FEE400#9602be016914c404
(1725350410.980000) can0 18FEE000#5f2d7e100dff0100
(1725350410.980000) can0 18FEE400#8c0297018a14c404
(1725350411.000000) can0 18FEE000#db2daa100dff0100
(1725350411.000000) can0 18FEE400#85028f016614c304
(1725350411.000000) can0 18FEE100#710363037a036a03
(1725350411.000000) can0 18FEE200#cb1bba1b271ce71b
(1725350411.000000) can0 18FEE300#eb0ac3044601800c
(1725350411.020000) can0 18FEE000#462d71100dff0100
(1725350411.020000) can0 18FEE400#9a027b017714c204
(1725350411.040000) can0 18FEE000#da2c42100cff0100
(1725350411.040000) can0 18FEE400#7002ab017514c504
(1725350411.060000) can0 18FEE000#5e2d49100dff0100
(1725350411.060000) can0 18FEE400#960252016a14c404
(1725350411.080000) can0 18FEE000#da2c4b100dff0100
(1725350411.080000) can0 18FEE400#96029b016714c504
(1725350411.100000) can0 18FEE000#482d79100dff0100
(1725350411.100000) can0 18FEE400#6702b5017c14c404
(1725350411.100000) can0 18FEE100#6f03670376036a03
(1725350411.100000) can0 18FEE200#dc1ba51b371cd81b
(1725350411.100000) can0 18FEE300#e80ac6044301800c
(1725350411.120000) can0 18FEE000#342d5c100dff0100
(1725350411.120000) can0 18FEE400#7502be015814c504
(1725350411.140000) can0 18FEE000#a02d61100cff0100
(1725350411.140000) can0 18FEE400#bc025c019414c304
(1725350411.160000) can0 18FEE000#432dae100dff0100
(1725350411.160000) can0 18FEE400#a60291015914c504
(1725350411.180000) can0 18FEE000#362d55100dff0100
(1725350411.180000) can0 18FEE400#64027a016b14c304
(1725350411.200000) can0 18FEE000#5d2d78100dff0100
(1725350411.200000) can0 18FEE400#700283018714c504
(1725350411.200000) can0 18FEE100#7003660378036c03
(1725350411.200000) can0 18FEE200#e51bc41b1c1ccb1b
(1725350411.200000) can0 18FEE300#e30ac5044301800c
(1725350411.220000) can0 18FEE000#c52d80100cff0100
(1725350411.220000) can0 18FEE400#830282018a14c304
(1725350411.240000) can0 18FEE000#5f2dbd100dff0100
(1725350411.240000) can0 18FEE400#8a028e017f14c304
(1725350411.260000) can0 18FEE000#b32c4a100dff0100
(1725350411.260000) can0 18FEE400#990295017e14c404
(1725350411.280000) can0 18FEE000#692d9f100cff0100
(1725350411.280000) can0 18FEE400#7702ad018214c404
(1725350411.300000) can0 18FEE000#ce2c4a100eff0100
(1725350411.300000) can0 18FEE400#89029c016b14c204
(1725350411.300000) can0 18FEE100#700367037a036c03
(1725350411.300000) can0 18FEE200#f51bb71b271cdb1b
(1725350411.300000) can0 18FEE300#ea0ac5044801800c
(1725350411.320000) can0 18FEE000#492c2d100cff0100
(1725350411.320000) can0 18FEE400#910280018f14c204
(1725350411.340000) can0 18FEE000#892d87100cff0100
(1725350411.340000) can0 18FEE400#a102ae017814c404
(1725350411.360000) can0 18FEE000#3a2e5d100cff0100
(1725350411.360000) can0 18FEE400#6202b0016814c504
(1725350411.380000) can0 18FEE000#022d97100cff0100
(1725350411.380000) can0 18FEE400#7a027b015214c504
(1725350411.400000) can0 18FEE000#6a2d48100dff0100
(1725350411.400000) can0 18FEE400#8702a8017b14c404
(1725350411.400000) can0 18FEE100#6f03630375037003
(1725350411.400000) can0 18FEE200#0e1cac1b061cd61b
(1725350411.400000) can0 18FEE300#000bc4044601800c
(1725350411.420000) can0 18FEE000#3a2d59100dff0100
(1725350411.420000) can0 18FEE400#8102f3017f14c504
(1725350411.440000) can0 18FEE000#9a2d76100cff0100
(1725350411.440000) can0 18FEE400#7e027f018a14c404
(1725350411.460000) can0 18FEE000#072d89100dff0100
(1725350411.460000) can0 18FEE400#7802d1017414c304
(1725350411.480000) can0 18FEE000#df2c7a100cff0100
(1725350411.480000) can0 18FEE400#9c0279017314c404
(1725350411.500000) can0 18FEE000#d82c64100dff0100
(1725350411.500000) can0 18FEE400#780293018f14c504
(1725350411.500000) can0 18FEE100#72035e0377036b03
(1725350411.500000) can0 18FEE200#091cc61b0e1ccf1b
(1725350411.500000) can0 18FEE300#fe0ac4043f01800c
(1725350411.520000) can0 18FEE000#f62c2e100dff0100
(1725350411.520000) can0 18FEE400#8a0262017a14c404
(1725350411.540000) can0 18FEE000#512d58100cff0100
(1725350411.540000) can0 18FEE400#980270018214c304
(1725350411.560000) can0 18FEE000#b92d3d100cff0100
(1725350411.560000) can0 18FEE400#5e0264017914c304
(1725350411.580000) can0 18FEE000#c52d88100dff0100
(1725350411.580000) can0 18FEE400#b50266016014c404
(1725350411.600000) can0 18FEE000#172dd8100cff0100
(1725350411.600000) can0 18FEE400#a50296016c14c404
(1725350411.600000) can0 18FEE100#7503610378036a03
(1725350411.600000) can0 18FEE200#e01bd01b1e1ccc1b
(1725350411.600000) can0 18FEE300#0a0bc3043a01800c
(1725350411.620000) can0 18FEE000#ea2c22100dff0100
(1725350411.620000) can0 18FEE400#9c0288016d14c304
(1725350411.640000) can0 18FEE000#312e7e100dff0100
(1725350411.640000) can0 18FEE400#8302b7016814c404
(1725350411.660000) can0 18FEE000#652d59100cff0100
(1725350411.660000) can0 18FEE400#7e0287017814c504
(1725350411.680000) can0 18FEE000#3e2d82100dff0100
(1725350411.680000) can0 18FEE400#9a0285017614c504
(1725350411.700000) can0 18FEE000#022e99100cff0100
(1725350411.700000) can0 18FEE400#850298018f14c504
(1725350411.700000) can0 18FEE100#6a03640375036a03
(1725350411.700000) can0 18FEE200#e21bcd1b0e1cd71b
(1725350411.700000) can0 18FEE300#030bc4044101800c
(1725350411.720000) can0 18FEE000#3e2d7b100dff0100
(1725350411.720000) can0 18FEE400#88025c016b14c504
(1725350411.740000) can0 18FEE000#152d5d100dff0100
(1725350411.740000) can0 18FEE400#9a02ad017514c204
(1725350411.760000) can0 18FEE000#d02c22100dff0100
(1725350411.760000) can0 18FEE400#85024b016c14c404
(1725350411.780000) can0 18FEE000#732d96100dff0100
(1725350411.780000) can0 18FEE400#9d026d017714c304
(1725350411.800000) can0 18FEE000#122e7e100cff0100
(1725350411.800000) can0 18FEE400#8f027e017214c404
(1725350411.800000) can0 18FEE100#6d03630379036503
(1725350411.800000) can0 18FEE200#fa1bca1b141ce01b
(1725350411.800000) can0 18FEE300#040bc5044301800c
(1725350411.820000) can0 18FEE000#552c76100cff0100
(1725350411.820000) can0 18FEE400#8b02a9016b14c304
(1725350411.840000) can0 18FEE000#722d73100cff0100
(1725350411.840000) can0 18FEE400#a60279017614c404
(1725350411.860000) can0 18FEE000#ca2cb9100dff0100
(1725350411.860000) can0 18FEE400#8e0281018f14c404
(1725350411.880000) can0 18FEE000#022d44100dff0100
(1725350411.880000) can0 18FEE400#7b02a4017b14c404
(1725350411.900000) can0 18FEE000#c52d88100dff0100
(1725350411.900000) can0 18FEE400#7602bf016914c404
(1725350411.900000) can0 18FEE100#6d0363037c036c03
(1725350411.900000) can0 18FEE200#091ca71b2d1ccb1b
(1725350411.900000) can0 18FEE300#d40ac3044401800c
(1725350411.920000) can0 18FEE000#372d27100dff0100
(1725350411.920000) can0 18FEE400#89026c018914c404
(1725350411.940000) can0 18FEE000#332daf100dff0100
(1725350411.940000) can0 18FEE400#94026a018614c504
(1725350411.960000) can0 18FEE000#272d84100dff0100
(1725350411.960000) can0 18FEE400#a5028c017d14c504
(1725350411.980000) can0 18FEE000#092e5b100dff0100
(1725350411.980000) can0 18FEE400#a9029c018e14c504
(1725350412.000000) can0 18FEE000#4b2d87100cff0100
(1725350412.000000) can0 18FEE400#9b029e016a14c304
(1725350412.000000) can0 18FEE100#6b0361037c036903
(1725350412.000000) can0 18FEE200#e61bca1b1e1ccf1b
(1725350412.000000) can0 18FEE300#ef0ac4043d01800c
(1725350412.020000) can0 18FEE000#912c7e100dff0100
(1725350412.020000) can0 18FEE400#8e028c016314c304
(1725350412.040000) can0 18FEE000#7f2c63100cff0100
(1725350412.040000) can0 18FEE400#a00296018a14c304
(1725350412.060000) can0 18FEE000#0c2d2f100dff0100
(1725350412.060000) can0 18FEE400#8b02c3016d14c504
(1725350412.080000) can0 18FEE000#4f2d54100dff0100
(1725350412.080000) can0 18FEE400#970297017114c204
(1725350412.100000) can0 18FEE000#1f2d3c100dff0100
(1725350412.100000) can0 18FEE400#ab026c018014c404
(1725350412.100000) can0 18FEE100#7203660377036e03
(1725350412.100000) can0 18FEE200#fc1bc41b2a1cd81b
(1725350412.100000) can0 18FEE300#d90ac3044301800c
(1725350412.120000) can0 18FEE000#432d9b100dff0100
(1725350412.120000) can0 18FEE400#7f0271018314c404
(1725350412.140000) can0 18FEE000#152dac100cff0100
(1725350412.140000) can0 18FEE400#8402b1017e14c404
(1725350412.160000) can0 18FEE000#6b2d0f100dff0100
(1725350412.160000) can0 18FEE400#870288018514c204
(1725350412.180000) can0 18FEE000#ec2c24100cff0100
(1725350412.180000) can0 18FEE400#71027d018214c404
(1725350412.200000) can0 18FEE000#972d7e100cff0100
(1725350412.200000) can0 18FEE400#6e02d0017e14c504
(1725350412.200000) can0 18FEE100#720362037f037003
(1725350412.200000) can0 18FEE200#ec1bd01b0c1ce01b
(1725350412.200000) can0 18FEE300#fb0ac5043a01800c
(1725350412.220000) can0 18FEE000#2b2d69100cff0100
(1725350412.220000) can0 18FEE400#800258016914c404
(1725350412.240000) can0 18FEE000#3c2db8100dff0100
(1725350412.240000) can0 18FEE400#780298016114c304
(1725350412.260000) can0 18FEE000#4b2e13100dff0100
(1725350412.260000) can0 18FEE400#a60280017714c504
(1725350412.280000) can0 18FEE000#9c2d2c100cff0100
(1725350412.280000) can0 18FEE400#9d028e018714c304
(1725350412.300000) can0 18FEE000#fa2c2e100dff0100
(1725350412.300000) can0 18FEE400#a902b8017814c304
(1725350412.300000) can0 18FEE100#7103660378036d03
(1725350412.300000) can0 18FEE200#d31bbf1b0b1ce31b
(1725350412.300000) can0 18FEE300#e70ac4044001800c
(1725350412.320000) can0 18FEE000#b92d61100cff0100
(1725350412.320000) can0 18FEE400#8b0292018414c204
(1725350412.340000) can0 18FEE000#442d6b100cff0100
(1725350412.340000) can0 18FEE400#910279016814c504
(1725350412.360000) can0 18FEE000#792d80100cff0100
(1725350412.360000) can0 18FEE400#780267017114c304
(1725350412.380000) can0 18FEE000#432d6f100dff0100
(1725350412.380000) can0 18FEE400#b90299018414c504
(1725350412.400000) can0 18FEE000#0a2d6a100cff0100
(1725350412.400000) can0 18FEE400#9202bb018314c404
(1725350412.400000) can0 18FEE100#7203640376036b03
(1725350412.400000) can0 18FEE200#f61bc11b011ceb1b
(1725350412.400000) can0 18FEE300#080bc4043f01800c
(1725350412.420000) can0 18FEE000#d42cb3100dff0100
(1725350412.420000) can0 18FEE400#8802a4017614c504
(1725350412.440000) can0 18FEE000#ee2c6e100eff0100
(1725350412.440000) can0 18FEE400#9c02a1017f14c504
(1725350412.460000) can0 18FEE000#3d2d6c100dff0100
(1725350412.460000) can0 18FEE400#9b02b0016014c404
(1725350412.480000) can0 18FEE000#002d5c100dff0100
(1725350412.480000) can0 18FEE400#660277017414c304
(1725350412.500000) can0 18FEE000#fa2c5c100cff0100
(1725350412.500000) can0 18FEE400#5902af018714c404
(1725350412.500000) can0 18FEE100#76035d0379036c03
(1725350412.500000) can0 18FEE200#e91bae1b161cd11b
(1725350412.500000) can0 18FEE300#f00ac3043a01800c
(1725350412.520000) can0 18FEE000#b72da7100cff0100
(1725350412.520000) can0 18FEE400#7d0286017114c304
(1725350412.540000) can0 18FEE000#442d38100cff0100
(1725350412.540000) can0 18FEE400#9f0292017b14c404
(1725350412.560000) can0 18FEE000#b72d63100dff0100
(1725350412.560000) can0 18FEE400#690287019314c504
(1725350412.580000) can0 18FEE000#db2c55100dff0100
(1725350412.580000) can0 18FEE400#92026a017914c304
(1725350412.600000) can0 18FEE000#662d33100cff0100
(1725350412.600000) can0 18FEE400#9402a3016f14c404
(1725350412.600000) can0 18FEE100#7503670375036903
(1725350412.600000) can0 18FEE200#f01bc51bea1bf11b
(1725350412.600000) can0 18FEE300#040bc4044001800c
(1725350412.620000) can0 18FEE000#382d3d100cff0100
(1725350412.620000) can0 18FEE400#610284018c14c204
(1725350412.640000) can0 18FEE000#262e4f100cff0100
(1725350412.640000) can0 18FEE400#9b0279016314c404
(1725350412.660000) can0 18FEE000#e62dc7100cff0100
(1725350412.660000) can0 18FEE400#8902d4017514c404
(1725350412.680000) can0 18FEE000#3b2d95100dff0100
(1725350412.680000) can0 18FEE400#8b02b3016614c404
(1725350412.700000) can0 18FEE000#312dbb100dff0100
(1725350412.700000) can0 18FEE400#530279017f14c504
(1725350412.700000) can0 18FEE100#7303680379036a03
(1725350412.700000) can0 18FEE200#d51bca1b2a1ce11b
(1725350412.700000) can0 18FEE300#f80ac4044201800c
(1725350412.720000) can0 18FEE000#332e70100dff0100
(1725350412.720000) can0 18FEE400#8402a0016814c404
(1725350412.740000) can0 18FEE000#1e2d4a100dff0100
(1725350412.740000) can0 18FEE400#81026b017114c404
(1725350412.760000) can0 18FEE000#f32d8b100dff0100
(1725350412.760000) can0 18FEE400#7202a0017214c404
(1725350412.780000) can0 18FEE000#102da3100dff0100
(1725350412.780000) can0 18FEE400#700293016b14c504
(1725350412.800000) can0 18FEE000#af2c7a100dff0100
(1725350412.800000) can0 18FEE400#a80258017714c404
(1725350412.800000) can0 18FEE100#6f03660375036903
(1725350412.800000) can0 18FEE200#ec1bb81b091ce41b
(1725350412.800000) can0 18FEE300#cf0ac4043f01800c
(1725350412.820000) can0 18FEE000#1e2d6d100cff0100
(1725350412.820000) can0 18FEE400#a8029a016314c304
(1725350412.840000) can0 18FEE000#cd2d6a100cff0100
(1725350412.840000) can0 18FEE400#800262018914c404
(1725350412.860000) can0 18FEE000#c42d48100dff0100
(1725350412.860000) can0 18FEE400#a20296019414c304
(1725350412.880000) can0 18FEE000#682e53100dff0100
(1725350412.880000) can0 18FEE400#8d02a1017814c504
(1725350412.900000) can0 18FEE000#0c2d82100dff0100
(1725350412.900000) can0 18FEE400#7c0251016a14c204
(1725350412.900000) can0 18FEE100#7003650378037003
(1725350412.900000) can0 18FEE200#f61bb01b081cdc1b
(1725350412.900000) can0 18FEE300#d20ac4044101800c
(1725350412.920000) can0 18FEE000#192d27100dff0100
(1725350412.920000) can0 18FEE400#94028e016414c404
(1725350412.940000) can0 18FEE000#f22d6c100cff0100
(1725350412.940000) can0 18FEE400#7a02b5016d14c404
(1725350412.960000) can0 18FEE000#a72c98100eff0100
(1725350412.960000) can0 18FEE400#6f02aa017914c304
(1725350412.980000) can0 18FEE000#1b2d3c100dff0100
(1725350412.980000) can0 18FEE400#780294016a14c404
(1725350413.000000) can0 18FEE000#9b2dfa0f0cff0100
(1725350413.000000) can0 18FEE400#8c028d017f14c304
(1725350413.000000) can0 18FEE100#6f03630376036703
(1725350413.000000) can0 18FEE200#0c1cb41b111ce31b
(1725350413.000000) can0 18FEE300#d20ac4043e01800c
(1725350413.020000) can0 18FEE000#572d97100cff0100
(1725350413.020000) can0 18FEE400#7a0280019014c404
(1725350413.040000) can0 18FEE000#502d79100dff0100
(1725350413.040000) can0 18FEE400#720284017a14c404
(1725350413.060000) can0 18FEE000#802da0100cff0100
(1725350413.060000) can0 18FEE400#72025d018014c304
(1725350413.080000) can0 18FEE000#8a2d79100cff0100
(1725350413.080000) can0 18FEE400#670288018e14c204
(1725350413.100000) can0 18FEE000#af2c5a100cff0100
(1725350413.100000) can0 18FEE400#87029a017214c604
(1725350413.100000) can0 18FEE100#7003640377036c03
(1725350413.100000) can0 18FEE200#ec1bd01b231cd81b
(1725350413.100000) can0 18FEE300#f10ac4043b01800c
(1725350413.120000) can0 18FEE000#9a2d39100cff0100
(1725350413.120000) can0 18FEE400#a80285016e14c604
(1725350413.140000) can0 18FEE000#7f2d9f100cff0100
(1725350413.140000) can0 18FEE400#9302a8014b14c504
(1725350413.160000) can0 18FEE000#902e78100cff0100
(1725350413.160000) can0 18FEE400#8502ac018e14c404
(1725350413.180000) can0 18FEE000#d72c30100dff0100
(1725350413.180000) can0 18FEE400#6b02b5016714c404
(1725350413.200000) can0 18FEE000#8c2d41100dff0100
(1725350413.200000) can0 18FEE400#870275016814c504
(1725350413.200000) can0 18FEE100#6f0363037c036903
(1725350413.200000) can0 18FEE200#fc1bcb1b331cca1b
(1725350413.200000) can0 18FEE300#030bc5044401800c
(1725350413.220000) can0 18FEE000#d02d9e100cff0100
(1725350413.220000) can0 18FEE400#7c0271018b14c304
(1725350413.240000) can0 18FEE000#8d2d89100dff0100
(1725350413.240000) can0 18FEE400#6502a7015114c404
(1725350413.260000) can0 18FEE000#502d4c100cff0100
(1725350413.260000) can0 18FEE400#9d029d017714c604
(1725350413.280000) can0 18FEE000#e72d98100cff0100
(1725350413.280000) can0 18FEE400#73027d016b14c404
(1725350413.300000) can0 18FEE000#7f2d62100dff0100
(1725350413.300000) can0 18FEE400#b002ad016d14c404
(1725350413.300000) can0 18FEE100#700363037a036e03
(1725350413.300000) can0 18FEE200#dc1bd81b191cd01b
(1725350413.300000) can0 18FEE300#070bc5044a01800c
(1725350413.320000) can0 18FEE000#4a2d89100cff0100
(1725350413.320000) can0 18FEE400#9702a1017514c304
(1725350413.340000) can0 18FEE000#ea2c49100dff0100
(1725350413.340000) can0 18FEE400#8802c0017714c104
(1725350413.360000) can0 18FEE000#c62c87100dff0100
(1725350413.360000) can0 18FEE400#b002d8017b14c404
(1725350413.380000) can0 18FEE000#a62d6d100dff0100
(1725350413.380000) can0 18FEE400#7c028d017f14c504
(1725350413.400000) can0 18FEE000#242d73100cff0100
(1725350413.400000) can0 18FEE400#ab0280016414c404
(1725350413.400000) can0 18FEE100#7103600377036b03
(1725350413.400000) can0 18FEE200#d01bc11b151cd01b
(1725350413.400000) can0 18FEE300#ea0ac4043f01800c
(1725350413.420000) can0 18FEE000#072e5d100dff0100
(1725350413.420000) can0 18FEE400#73027c016614c404
(1725350413.440000) can0 18FEE000#652d46100cff0100
(1725350413.440000) can0 18FEE400#8302b7016714c504
(1725350413.460000) can0 18FEE000#1c2e47100cff0100
(1725350413.460000) can0 18FEE400#8a02a8016c14c404
(1725350413.480000) can0 18FEE000#1d2c90100dff0100
(1725350413.480000) can0 18FEE400#94027e017614c404
(1725350413.500000) can0 18FEE000#882c73100dff0100
(1725350413.500000) can0 18FEE400#9a026f018d14c604
(1725350413.500000) can0 18FEE100#6e0367037a036d03
(1725350413.500000) can0 18FEE200#df1bb01b1b1ce11b
(1725350413.500000) can0 18FEE300#f40ac2044201800c
(1725350413.520000) can0 18FEE000#fd2d61100dff0100
(1725350413.520000) can0 18FEE400#740275017f14c304
(1725350413.540000) can0 18FEE000#b52d11100dff0100
(1725350413.540000) can0 18FEE400#7b02c0016f14c504
(1725350413.560000) can0 18FEE000#6a2d82100cff0100
(1725350413.560000) can0 18FEE400#7002ad016f14c404
(1725350413.580000) can0 18FEE000#f12d5b100dff0100
(1725350413.580000) can0 18FEE400#91029e017514c504
(1725350413.600000) can0 18FEE000#9d2d78100cff0100
(1725350413.600000) can0 18FEE400#ae02ab016f14c404
(1725350413.600000) can0 18FEE100#6e0364037c036b03
(1725350413.600000) can0 18FEE200#f11bbd1b101cdf1b
(1725350413.600000) can0 18FEE300#d10ac3043c01800c
(1725350413.620000) can0 18FEE000#1d2d3c100dff0100
(1725350413.620000) can0 18FEE400#a1029b018714c304
(1725350413.640000) can0 18FEE000#d02d6c100dff0100
(1725350413.640000) can0 18FEE400#7202a1015c14c604
(1725350413.660000) can0 18FEE000#de2d07100bff0100
(1725350413.660000) can0 18FEE400#7d02af016e14c204
(1725350413.680000) can0 18FEE000#392d6b100cff0100
(1725350413.680000) can0 18FEE400#920295016514c304
(1725350413.700000) can0 18FEE000#142e77100cff0100
(1725350413.700000) can0 18FEE400#8402a4017b14c504
(1725350413.700000) can0 18FEE100#7003620378036c03
(1725350413.700000) can0 18FEE200#d71bab1b191cc81b
(1725350413.700000) can0 18FEE300#010bc4044301800c
(1725350413.720000) can0 18FEE000#fb2c77100dff0100
(1725350413.720000) can0 18FEE400#760273017d14c404
(1725350413.740000) can0 18FEE000#c12d6f100cff0100
(1725350413.740000) can0 18FEE400#9f02e1017c14c304
(1725350413.760000) can0 18FEE000#4e2d7b100cff0100
(1725350413.760000) can0 18FEE400#d702b5018314c304
(1725350413.780000) can0 18FEE000#a72d87100cff0100
(1725350413.780000) can0 18FEE400#970257017014c304
(1725350413.800000) can0 18FEE000#142d74100dff0100
(1725350413.800000) can0 18FEE400#a402a4017214c304
(1725350413.800000) can0 18FEE100#7603690377036c03
(1725350413.800000) can0 18FEE200#e51bc11b111ce31b
(1725350413.800000) can0 18FEE300#040bc4044501800c
(1725350413.820000) can0 18FEE000#0d2e3f100dff0100
(1725350413.820000) can0 18FEE400#bc02c1018514c504
(1725350413.840000) can0 18FEE000#3b2e60100cff0100
(1725350413.840000) can0 18FEE400#75025f017b14c404
(1725350413.860000) can0 18FEE000#102d6c100dff0100
(1725350413.860000) can0 18FEE400#7002d7016f14c304
(1725350413.880000) can0 18FEE000#742c41100dff0100
(1725350413.880000) can0 18FEE400#960295017b14c404
(1725350413.900000) can0 18FEE000#0b2d51100dff0100
(1725350413.900000) can0 18FEE400#8402c2018414c404
(1725350413.900000) can0 18FEE100#6d03640374036703
(1725350413.900000) can0 18FEE200#df1bb41b1b1cee1b
(1725350413.900000) can0 18FEE300#e60ac4044501800c
(1725350413.920000) can0 18FEE000#982d55100dff0100
(1725350413.920000) can0 18FEE400#880295018814c504
(1725350413.940000) can0 18FEE000#b22d51100dff0100
(1725350413.940000) can0 18FEE400#92027e019014c404
(1725350413.960000) can0 18FEE000#ed2c93100dff0100
(1725350413.960000) can0 18FEE400#a20265016414c404
(1725350413.980000) can0 18FEE000#0b2d9b100cff0100
(1725350413.980000) can0 18FEE400#8a0290017814c504
(1725350414.000000) can0 18FEE000#e92cbc100cff0100
(1725350414.000000) can0 18FEE400#6e0281017e14c404
(1725350414.000000) can0 18FEE100#6b03670379036e03
(1725350414.000000) can0 18FEE200#041cbe1bfb1be51b
(1725350414.000000) can0 18FEE300#eb0ac4043701800c
(1725350414.020000) can0 18FEE000#282d87100cff0100
(1725350414.020000) can0 18FEE400#87029d016c14c304
(1725350414.040000) can0 18FEE000#1a2d4b100dff0100
(1725350414.040000) can0 18FEE400#840269017c14c504
(1725350414.060000) can0 18FEE000#cf2c7b100cff0100
(1725350414.060000) can0 18FEE400#7102a4018014c304
(1725350414.080000) can0 18FEE000#402d48100cff0100
(1725350414.080000) can0 18FEE400#7a02ba018814c404
(1725350414.100000) can0 18FEE000#bb2c7c100cff0100
(1725350414.100000) can0 18FEE400#7702b2018514c304
(1725350414.100000) can0 18FEE100#6903630375036e03
(1725350414.100000) can0 18FEE200#d81bae1b291cd41b
(1725350414.100000) can0 18FEE300#090bc5043b01800c
(1725350414.120000) can0 18FEE000#b42c91100cff0100
(1725350414.120000) can0 18FEE400#8e02d8017d14c604
(1725350414.140000) can0 18FEE000#ed2d7d100cff0100
(1725350414.140000) can0 18FEE400#8702c5017f14c604
(1725350414.160000) can0 18FEE000#eb2c5e100cff0100
(1725350414.160000) can0 18FEE400#820288016314c404
(1725350414.180000) can0 18FEE000#d22d77100dff0100
(1725350414.180000) can0 18FEE400#a40277016114c304
(1725350414.200000) can0 18FEE000#db2c5e100cff0100
(1725350414.200000) can0 18FEE400#8602c5017014c504
(1725350414.200000) can0 18FEE100#6e0367037a036d03
(1725350414.200000) can0 18FEE200#e31bba1b2e1ccb1b
(1725350414.200000) can0 18FEE300#ec0ac4043e01800c
(1725350414.220000) can0 18FEE000#0f2d59100cff0100
(1725350414.220000) can0 18FEE400#8e02bb017914c404
(1725350414.240000) can0 18FEE000#512d70100cff0100
(1725350414.240000) can0 18FEE400#860279014f14c404
(1725350414.260000) can0 18FEE000#f72c2d100dff0100
(1725350414.260000) can0 18FEE400#ad028a016714c404
(1725350414.280000) can0 18FEE000#fb2cab100cff0100
(1725350414.280000) can0 18FEE400#8a02a2017514c304
(1725350414.300000) can0 18FEE000#182d8b100dff0100
(1725350414.300000) can0 18FEE400#7c024b018214c404
(1725350414.300000) can0 18FEE100#7103630378036a03
(1725350414.300000) can0 18FEE200#ea1ba91b2d1cd21b
(1725350414.300000) can0 18FEE300#eb0ac3044101800c
(1725350414.320000) can0 18FEE000#c12c77100cff0100
(1725350414.320000) can0 18FEE400#760286017e14c504
(1725350414.340000) can0 18FEE000#392d28100cff0100
(1725350414.340000) can0 18FEE400#a30283018614c404
(1725350414.360000) can0 18FEE000#b52c8a100dff0100
(1725350414.360000) can0 18FEE400#870275018d14c404
(1725350414.380000) can0 18FEE000#4c2d0f100cff0100
(1725350414.380000) can0 18FEE400#aa0256018014c504
(1725350414.400000) can0 18FEE000#732d82100cff0100
(1725350414.400000) can0 18FEE400#8502b4017c14c604
(1725350414.400000) can0 18FEE100#7503670376036503
(1725350414.400000) can0 18FEE200#e01bb41bf81bde1b
(1725350414.400000) can0 18FEE300#fa0ac4043d01800c
(1725350414.420000) can0 18FEE000#062d74100cff0100
(1725350414.420000) can0 18FEE400#a10280016b14c504
(1725350414.440000) can0 18FEE000#c22d8a100cff0100
(1725350414.440000) can0 18FEE400#790297017214c304
(1725350414.460000) can0 18FEE000#3a2d53100dff0100
(1725350414.460000) can0 18FEE400#820295017f14c404
(1725350414.480000) can0 18FEE000#b72c53100cff0100
(1725350414.480000) can0 18FEE400#7b0271016514c404
(1725350414.500000) can0 18FEE000#482d60100dff0100
(1725350414.500000) can0 18FEE400#b202bb018a14c304
(1725350414.500000) can0 18FEE100#710364037b036603
(1725350414.500000) can0 18FEE200#ed1baa1b1c1ce71b
(1725350414.500000) can0 18FEE300#e20ac2044301800c
(1725350414.520000) can0 18FEE000#992d74100dff0100
(1725350414.520000) can0 18FEE400#5802c8017614c304
(1725350414.540000) can0 18FEE000#f52d7d100dff0100
(1725350414.540000) can0 18FEE400#8602bd016b14c504
(1725350414.560000) can0 18FEE000#232dbd100dff0100
(1725350414.560000) can0 18FEE400#a7027d017914c304
(1725350414.580000) can0 18FEE000#4e2e66100dff0100
(1725350414.580000) can0 18FEE400#740284019a14c604
(1725350414.600000) can0 18FEE000#172d6c100dff0100
(1725350414.600000) can0 18FEE400#960292016e14c404
(1725350414.600000) can0 18FEE100#760366037d036c03
(1725350414.600000) can0 18FEE200#e41bb01b0b1ce71b
(1725350414.600000) can0 18FEE300#050bc6044101800c
(1725350414.620000) can0 18FEE000#b62d10100cff0100
(1725350414.620000) can0 18FEE400#8f02a2016f14c304
(1725350414.640000) can0 18FEE000#6f2d5d100dff0100
(1725350414.640000) can0 18FEE400#b30285017e14c504
(1725350414.660000) can0 18FEE000#852d42100dff0100
(1725350414.660000) can0 18FEE400#80027d016c14c304
(1725350414.680000) can0 18FEE000#4e2d2b100cff0100
(1725350414.680000) can0 18FEE400#b902ce017814c404
(1725350414.700000) can0 18FEE000#622d70100cff0100
(1725350414.700000) can0 18FEE400#880270016d14c504
(1725350414.700000) can0 18FEE100#6b03650376036a03
(1725350414.700000) can0 18FEE200#d71bcd1b001cf71b
(1725350414.700000) can0 18FEE300#de0ac4043f01800c
(1725350414.720000) can0 18FEE000#182d8c100cff0100
(1725350414.720000) can0 18FEE400#760283017014c404
(1725350414.740000) can0 18FEE000#7d2d55100cff0100
(1725350414.740000) can0 18FEE400#6d02a0016714c504
(1725350414.760000) can0 18FEE000#332daa100cff0100
(1725350414.760000) can0 18FEE400#b5026b016814c504
(1725350414.780000) can0 18FEE000#d12c6c100cff0100
(1725350414.780000) can0 18FEE400#6d02c2016014c304
(1725350414.800000) can0 18FEE000#972c72100cff0100
(1725350414.800000) can0 18FEE400#950278015a14c504
(1725350414.800000) can0 18FEE100#71035e0376036d03
(1725350414.800000) can0 18FEE200#fb1ba81b121ce41b
(1725350414.800000) can0 18FEE300#050bc1043d01800c
(1725350414.820000) can0 18FEE000#362d82100dff0100
(1725350414.820000) can0 18FEE400#9c02ca019c14c404
(1725350414.840000) can0 18FEE000#6c2c46100eff0100
(1725350414.840000) can0 18FEE400#86027e015514c504
(1725350414.860000) can0 18FEE000#a12d6a100cff0100
(1725350414.860000) can0 18FEE400#980297017214c504
(1725350414.880000) can0 18FEE000#312d6d100cff0100
(1725350414.880000) can0 18FEE400#a8028a017b14c304
(1725350414.900000) can0 18FEE000#ac2c43100dff0100
(1725350414.900000) can0 18FEE400#91028a017114c304
(1725350414.900000) can0 18FEE100#7303600376036d03
(1725350414.900000) can0 18FEE200#041cb41b061cd41b
(1725350414.900000) can0 18FEE300#eb0ac6044501800c
(1725350414.920000) can0 18FEE000#152d67100dff0100
(1725350414.920000) can0 18FEE400#8d02ad016914c504
(1725350414.940000) can0 18FEE000#dc2d87100cff0100
(1725350414.940000) can0 18FEE400#ad0291017914c404
(1725350414.960000) can0 18FEE000#ad2d79100cff0100
(1725350414.960000) can0 18FEE400#8c0299018114c504
(1725350414.980000) can0 18FEE000#c62da5100cff0100
(1725350414.980000) can0 18FEE400#8502af018314c304
(1725350415.000000) can0 18FEE000#a42c5d100dff0100
(1725350415.000000) can0 18FEE400#6a02c1017a14c504
(1725350415.000000) can0 18FEE100#7003640377036e03
(1725350415.000000) can0 18FEE200#f31bba1b011cdd1b
(1725350415.000000) can0 18FEE300#e90ac4044101800c
(1725350415.020000) can0 18FEE000#a42d89100cff0100
(1725350415.020000) can0 18FEE400#6d02f8017f14c504
(1725350415.040000) can0 18FEE000#bc2d72100cff0100
(1725350415.040000) can0 18FEE400#8c02a1018214c504
(1725350415.060000) can0 18FEE000#452d63100dff0100
