(1725350400.000000) can0 18FEE000#3c78b11c71ff0100
(1725350400.000000) can0 18FEE400#210361018314c404
(1725350400.000000) can0 18FEE100#d903d103e403d903
(1725350400.000000) can0 18FEE200#5e1e531e8f1e4a1e
(1725350400.000000) can0 18FEE300#2b0d00051006800c
(1725350400.020000) can0 18FEE000#2377291d71ff0100
(1725350400.020000) can0 18FEE400#2f03a3017914c504
(1725350400.040000) can0 18FEE000#d677f21c70ff0100
(1725350400.040000) can0 18FEE400#100371018614c404
(1725350400.060000) can0 18FEE000#c178111d71ff0100
(1725350400.060000) can0 18FEE400#250396018a14c304
(1725350400.080000) can0 18FEE000#9c77b21c71ff0100
(1725350400.080000) can0 18FEE400#26038e019014c604
(1725350400.100000) can0 18FEE000#0578a01c70ff0100
(1725350400.100000) can0 18FEE400#410395019914c504
(1725350400.100000) can0 18FEE100#d903cd03e103da03
(1725350400.100000) can0 18FEE200#911e571e9c1e661e
(1725350400.100000) can0 18FEE300#2b0d00050606800c
(1725350400.120000) can0 18FEE000#3878e51c70ff0100
(1725350400.120000) can0 18FEE400#1f0395018514c504
(1725350400.140000) can0 18FEE000#d877e71c71ff0100
(1725350400.140000) can0 18FEE400#3d03a2018914c304
(1725350400.160000) can0 18FEE000#5b78b81c71ff0100
(1725350400.160000) can0 18FEE400#2703a1017214c504
(1725350400.180000) can0 18FEE000#6d79e01c70ff0100
(1725350400.180000) can0 18FEE400#04038c016b14c404
(1725350400.200000) can0 18FEE000#6d77bd1c71ff0100
(1725350400.200000) can0 18FEE400#35036b017814c304
(1725350400.200000) can0 18FEE100#e203cf03e603d803
(1725350400.200000) can0 18FEE200#6e1e541e8d1e631e
(1725350400.200000) can0 18FEE300#4d0d00050c06800c
(1725350400.220000) can0 18FEE000#0678051d70ff0100
(1725350400.220000) can0 18FEE400#1c0388015614c604
(1725350400.240000) can0 18FEE000#3078e11c72ff0100
(1725350400.240000) can0 18FEE400#2103ee017114c504
(1725350400.260000) can0 18FEE000#3c78d41c71ff0100
(1725350400.260000) can0 18FEE400#0e0389016514c204
(1725350400.280000) can0 18FEE000#9278111d70ff0100
(1725350400.280000) can0 18FEE400#30036f017614c504
(1725350400.300000) can0 18FEE000#8a78e21c71ff0100
(1725350400.300000) can0 18FEE400#1d037e018a14c304
(1725350400.300000) can0 18FEE100#dc03ce03e803d903
(1725350400.300000) can0 18FEE200#7d1e541eb01e5c1e
(1725350400.300000) can0 18FEE300#430d00051006800c
(1725350400.320000) can0 18FEE000#6a770b1d71ff0100
(1725350400.320000) can0 18FEE400#1f03ad016e14c404
(1725350400.340000) can0 18FEE000#5f78dd1c70ff0100
(1725350400.340000) can0 18FEE400#1803b5017714c304
(1725350400.360000) can0 18FEE000#c278e91c71ff0100
(1725350400.360000) can0 18FEE400#46039f015f14c304
(1725350400.380000) can0 18FEE000#d777dc1c70ff0100
(1725350400.380000) can0 18FEE400#20038c019914c404
(1725350400.400000) can0 18FEE000#e277fb1c70ff0100
(1725350400.400000) can0 18FEE400#0b037a017e14c204
(1725350400.400000) can0 18FEE100#e203d703e403db03
(1725350400.400000) can0 18FEE200#7d1e331ebe1e5f1e
(1725350400.400000) can0 18FEE300#630d01050706800c
(1725350400.420000) can0 18FEE000#4578151d6fff0100
(1725350400.420000) can0 18FEE400#3103c8015d14c304
(1725350400.440000) can0 18FEE000#2078041d71ff0100
(1725350400.440000) can0 18FEE400#0a037b017e14c504
(1725350400.460000) can0 18FEE000#5a78061d71ff0100
(1725350400.460000) can0 18FEE400#23038c017214c404
(1725350400.480000) can0 18FEE000#4578441d70ff0100
(1725350400.480000) can0 18FEE400#2903a6018d14c504
(1725350400.500000) can0 18FEE000#a978c21c70ff0100
(1725350400.500000) can0 18FEE400#0f0387018b14c304
(1725350400.500000) can0 18FEE100#da03d803e403db03
(1725350400.500000) can0 18FEE200#781e4d1e8a1e5c1e
(1725350400.500000) can0 18FEE300#5f0d00050d06800c
(1725350400.520000) can0 18FEE000#8877b11c70ff0100
(1725350400.520000) can0 18FEE400#2a0373017714c304
(1725350400.540000) can0 18FEE000#9d77c91c71ff0100
(1725350400.540000) can0 18FEE400#18038c018a14c304
(1725350400.560000) can0 18FEE000#c978ea1c70ff0100
(1725350400.560000) can0 18FEE400#330377017614c404
(1725350400.580000) can0 18FEE000#f377fd1c71ff0100
(1725350400.580000) can0 18FEE400#220383017b14c404
(1725350400.600000) can0 18FEE000#ae78df1c71ff0100
(1725350400.600000) can0 18FEE400#1c03a4016a14c404
(1725350400.600000) can0 18FEE100#df03d103e903d903
(1725350400.600000) can0 18FEE200#911e361e961e701e
(1725350400.600000) can0 18FEE300#330d00051406800c
(1725350400.620000) can0 18FEE000#7778111d71ff0100
(1725350400.620000) can0 18FEE400#1f039d017d14c204
(1725350400.640000) can0 18FEE000#cb78061d70ff0100
(1725350400.640000) can0 18FEE400#20039b016714c304
(1725350400.660000) can0 18FEE000#aa78a01c71ff0100
(1725350400.660000) can0 18FEE400#3f039c017c14c304
(1725350400.680000) can0 18FEE000#4e78d91c70ff0100
(1725350400.680000) can0 18FEE400#29036e016d14c504
(1725350400.700000) can0 18FEE000#6978de1c70ff0100
(1725350400.700000) can0 18FEE400#280365016d14c504
(1725350400.700000) can0 18FEE100#dc03d203e503d903
(1725350400.700000) can0 18FEE200#7e1e5e1e901e421e
(1725350400.700000) can0 18FEE300#410d00050806800c
(1725350400.720000) can0 18FEE000#de780c1d70ff0100
(1725350400.720000) can0 18FEE400#370379017714c404
(1725350400.740000) can0 18FEE000#8c78041d71ff0100
(1725350400.740000) can0 18FEE400#3403cf017714c604
(1725350400.760000) can0 18FEE000#07793c1d70ff0100
(1725350400.760000) can0 18FEE400#1f03b1017214c504
(1725350400.780000) can0 18FEE000#5678fc1c70ff0100
(1725350400.780000) can0 18FEE400#1303a1018114c304
(1725350400.800000) can0 18FEE000#d277e11c71ff0100
(1725350400.800000) can0 18FEE400#14038d017014c404
(1725350400.800000) can0 18FEE100#da03d503e203d703
(1725350400.800000) can0 18FEE200#771e421eb11e731e
(1725350400.800000) can0 18FEE300#720d01051106800c
(1725350400.820000) can0 18FEE000#33787c1c70ff0100
(1725350400.820000) can0 18FEE400#3403b7017214c404
(1725350400.840000) can0 18FEE000#f877da1c71ff0100
(1725350400.840000) can0 18FEE400#260369016a14c304
(1725350400.860000) can0 18FEE000#1f78df1c71ff0100
(1725350400.860000) can0 18FEE400#3603b8018b14c404
(1725350400.880000) can0 18FEE000#e478d91c70ff0100
(1725350400.880000) can0 18FEE400#1d03ba018a14c504
(1725350400.900000) can0 18FEE000#df77fc1c71ff0100
(1725350400.900000) can0 18FEE400#47036e016314c404
(1725350400.900000) can0 18FEE100#e203cf03e803d603
(1725350400.900000) can0 18FEE200#7f1e561eab1e4b1e
(1725350400.900000) can0 18FEE300#310d02050c06800c
(1725350400.920000) can0 18FEE000#14782d1d70ff0100
(1725350400.920000) can0 18FEE400#0f0397018614c304
(1725350400.940000) can0 18FEE000#1e78f41c71ff0100
(1725350400.940000) can0 18FEE400#1b0391016f14c504
(1725350400.960000) can0 18FEE000#b678d41c71ff0100
(1725350400.960000) can0 18FEE400#080394017314c404
(1725350400.980000) can0 18FEE000#6d78cd1c71ff0100
(1725350400.980000) can0 18FEE400#200380016614c404
(1725350401.000000) can0 18FEE000#d278ff1c71ff0100
(1725350401.000000) can0 18FEE400#2e037d017914c504
(1725350401.000000) can0 18FEE100#dd03d303e103d403
(1725350401.000000) can0 18FEE200#761e491ea61e6e1e
(1725350401.000000) can0 18FEE300#5f0dff041506800c
(1725350401.020000) can0 18FEE000#1078fc1c70ff0100
(1725350401.020000) can0 18FEE400#110397018e14c304
(1725350401.040000) can0 18FEE000#3f79c91c70ff0100
(1725350401.040000) can0 18FEE400#3403d4015714c404
(1725350401.060000) can0 18FEE000#8c78061d70ff0100
(1725350401.060000) can0 18FEE400#2203b2017714c404
(1725350401.080000) can0 18FEE000#5478cd1c70ff0100
(1725350401.080000) can0 18FEE400#19039e019014c404
(1725350401.100000) can0 18FEE000#ca771e1d71ff0100
(1725350401.100000) can0 18FEE400#4803d6018d14c404
(1725350401.100000) can0 18FEE100#dc03d303e803d403
(1725350401.100000) can0 18FEE200#6a1e461ea71e6d1e
(1725350401.100000) can0 18FEE300#390d00050d06800c
(1725350401.120000) can0 18FEE000#e577fa1c70ff0100
(1725350401.120000) can0 18FEE400#38039d016314c304
(1725350401.140000) can0 18FEE000#cb78da1c71ff0100
(1725350401.140000) can0 18FEE400#0b0384017114c404
(1725350401.160000) can0 18FEE000#6878251d72ff0100
(1725350401.160000) can0 18FEE400#4b0380017214c404
(1725350401.180000) can0 18FEE000#7478f61c70ff0100
(1725350401.180000) can0 18FEE400#4303a0018814c504
(1725350401.200000) can0 18FEE000#5078291d70ff0100
(1725350401.200000) can0 18FEE400#11039e018b14c504
(1725350401.200000) can0 18FEE100#dd03d303e203d403
(1725350401.200000) can0 18FEE200#891e5a1ea91e621e
(1725350401.200000) can0 18FEE300#4e0d00050b06800c
(1725350401.220000) can0 18FEE000#ff78cb1c70ff0100
(1725350401.220000) can0 18FEE400#18034b018114c304
(1725350401.240000) can0 18FEE000#b3772a1d70ff0100
(1725350401.240000) can0 18FEE400#2f03b3017114c404
(1725350401.260000) can0 18FEE000#c478221d70ff0100
(1725350401.260000) can0 18FEE400#1703a9017a14c404
(1725350401.280000) can0 18FEE000#0978d01c71ff0100
(1725350401.280000) can0 18FEE400#120375017c14c304
(1725350401.300000) can0 18FEE000#2e790e1d71ff0100
(1725350401.300000) can0 18FEE400#26039f018114c304
(1725350401.300000) can0 18FEE100#dc03d303e603d703
(1725350401.300000) can0 18FEE200#861e401ec61e631e
(1725350401.300000) can0 18FEE300#650d02051306800c
(1725350401.320000) can0 18FEE000#af782e1d70ff0100
(1725350401.320000) can0 18FEE400#290366016514c204
(1725350401.340000) can0 18FEE000#d777be1c71ff0100
(1725350401.340000) can0 18FEE400#0203c4016714c404
(1725350401.360000) can0 18FEE000#8a78f61c6fff0100
(1725350401.360000) can0 18FEE400#23039d016514c504
(1725350401.380000) can0 18FEE000#0e78e11c70ff0100
(1725350401.380000) can0 18FEE400#200395017e14c204
(1725350401.400000) can0 18FEE000#bd78091d71ff0100
(1725350401.400000) can0 18FEE400#2b038b018814c304
(1725350401.400000) can0 18FEE100#dd03d503e603db03
(1725350401.400000) can0 18FEE200#701e4c1eb01e5c1e
(1725350401.400000) can0 18FEE300#330d00051506800c
(1725350401.420000) can0 18FEE000#1e78221d71ff0100
(1725350401.420000) can0 18FEE400#090395017714c404
(1725350401.440000) can0 18FEE000#04780d1d71ff0100
(1725350401.440000) can0 18FEE400#2c0390016514c504
(1725350401.460000) can0 18FEE000#5778e91c71ff0100
(1725350401.460000) can0 18FEE400#2203a2017e14c404
(1725350401.480000) can0 18FEE000#a876c01c70ff0100
(1725350401.480000) can0 18FEE400#1e0383017514c304
(1725350401.500000) can0 18FEE000#d177bb1c70ff0100
(1725350401.500000) can0 18FEE400#360376017114c404
(1725350401.500000) can0 18FEE100#e103d103ea03d603
(1725350401.500000) can0 18FEE200#661e4e1eb41e631e
(1725350401.500000) can0 18FEE300#510dff040b06800c
(1725350401.520000) can0 18FEE000#4878001d71ff0100
(1725350401.520000) can0 18FEE400#070366016414c304
(1725350401.540000) can0 18FEE000#9478371d71ff0100
(1725350401.540000) can0 18FEE400#230394016f14c504
(1725350401.560000) can0 18FEE000#ba78ee1c71ff0100
(1725350401.560000) can0 18FEE400#36037b017514c504
(1725350401.580000) can0 18FEE000#c777e31c70ff0100
(1725350401.580000) can0 18FEE400#29039a018514c604
(1725350401.600000) can0 18FEE000#2378d41c71ff0100
(1725350401.600000) can0 18FEE400#1a03aa017914c404
(1725350401.600000) can0 18FEE100#e003d203eb03db03
(1725350401.600000) can0 18FEE200#7b1e481e8c1e641e
(1725350401.600000) can0 18FEE300#540d01051106800c
(1725350401.620000) can0 18FEE000#1879fe1c71ff0100
(1725350401.620000) can0 18FEE400#180387016714c304
(1725350401.640000) can0 18FEE000#ef778d1c71ff0100
(1725350401.640000) can0 18FEE400#390394019514c404
(1725350401.660000) can0 18FEE000#7578201d71ff0100
(1725350401.660000) can0 18FEE400#260392018414c404
(1725350401.680000) can0 18FEE000#05780f1d71ff0100
(1725350401.680000) can0 18FEE400#1503d1016714c304
(1725350401.700000) can0 18FEE000#1e78151d70ff0100
(1725350401.700000) can0 18FEE400#16037e018014c404
(1725350401.700000) can0 18FEE100#dd03cc03e803de03
(1725350401.700000) can0 18FEE200#791e401ea61e551e
(1725350401.700000) can0 18FEE300#460d01050b06800c
(1725350401.720000) can0 18FEE000#7478ee1c70ff0100
(1725350401.720000) can0 18FEE400#fe028c018114c404
(1725350401.740000) can0 18FEE000#9e78da1c70ff0100
(1725350401.740000) can0 18FEE400#130398017314c404
(1725350401.760000) can0 18FEE000#2577011d70ff0100
(1725350401.760000) can0 18FEE400#0d03d1018014c404
(1725350401.780000) can0 18FEE000#fb77f91c70ff0100
(1725350401.780000) can0 18FEE400#30037a017314c504
(1725350401.800000) can0 18FEE000#8e77071d70ff0100
(1725350401.800000) can0 18FEE400#1b039d017a14c404
(1725350401.800000) can0 18FEE100#dc03d003e703da03
(1725350401.800000) can0 18FEE200#611e2e1e9b1e6f1e
(1725350401.800000) can0 18FEE300#430d00050906800c
(1725350401.820000) can0 18FEE000#4278d61c71ff0100
(1725350401.820000) can0 18FEE400#0903a0016714c304
(1725350401.840000) can0 18FEE000#9b78fd1c70ff0100
(1725350401.840000) can0 18FEE400#0a03cd018714c404
(1725350401.860000) can0 18FEE000#b778be1c6fff0100
(1725350401.860000) can0 18FEE400#2d0363018514c404
(1725350401.880000) can0 18FEE000#7b78891c70ff0100
(1725350401.880000) can0 18FEE400#42039c015914c504
(1725350401.900000) can0 18FEE000#3b79ef1c72ff0100
(1725350401.900000) can0 18FEE400#0b0382019214c204
(1725350401.900000) can0 18FEE100#df03d303e803df03
(1725350401.900000) can0 18FEE200#7a1e4e1eaf1e5f1e
(1725350401.900000) can0 18FEE300#5c0dff041e06800c
(1725350401.920000) can0 18FEE000#bc78be1c70ff0100
(1725350401.920000) can0 18FEE400#40037f018114c404
(1725350401.940000) can0 18FEE000#9877181d71ff0100
(1725350401.940000) can0 18FEE400#0c0381016014c504
(1725350401.960000) can0 18FEE000#d377a11c70ff0100
(1725350401.960000) can0 18FEE400#0e03b1018d14c504
(1725350401.980000) can0 18FEE000#e777ac1c72ff0100
(1725350401.980000) can0 18FEE400#3203a9018b14c404
(1725350402.000000) can0 18FEE000#ce78e71c72ff0100
(1725350402.000000) can0 18FEE400#180387017214c304
(1725350402.000000) can0 18FEE100#db03d103e203d703
(1725350402.000000) can0 18FEE200#821e381e911e5c1e
(1725350402.000000) can0 18FEE300#5b0d00051b06800c
(1725350402.020000) can0 18FEE000#5e78ea1c70ff0100
(1725350402.020000) can0 18FEE400#55037d016514c304
(1725350402.040000) can0 18FEE000#2479021d71ff0100
(1725350402.040000) can0 18FEE400#0f0375016214c404
(1725350402.060000) can0 18FEE000#2f78da1c71ff0100
(1725350402.060000) can0 18FEE400#3303b6016e14c404
(1725350402.080000) can0 18FEE000#0e780f1d71ff0100
(1725350402.080000) can0 18FEE400#05039b016d14c504
(1725350402.100000) can0 18FEE000#4878bf1c70ff0100
(1725350402.100000) can0 18FEE400#3703ba018514c504
(1725350402.100000) can0 18FEE100#db03d503e403dd03
(1725350402.100000) can0 18FEE200#7e1e531eb61e661e
(1725350402.100000) can0 18FEE300#390d00050506800c
(1725350402.120000) can0 18FEE000#1f78f61c70ff0100
(1725350402.120000) can0 18FEE400#290399017514c404
(1725350402.140000) can0 18FEE000#0d781e1d71ff0100
(1725350402.140000) can0 18FEE400#260396017e14c304
(1725350402.160000) can0 18FEE000#4c78dc1c71ff0100
(1725350402.160000) can0 18FEE400#2c03a0017014c304
(1725350402.180000) can0 18FEE000#7b78ea1c71ff0100
(1725350402.180000) can0 18FEE400#3b0395019014c504
(1725350402.200000) can0 18FEE000#8b78d81c70ff0100
(1725350402.200000) can0 18FEE400#2403ab016b14c304
(1725350402.200000) can0 18FEE100#de03d003ea03ce03
(1725350402.200000) can0 18FEE200#6c1e621e8e1e841e
(1725350402.200000) can0 18FEE300#410d00050c06800c
(1725350402.220000) can0 18FEE000#c577141d70ff0100
(1725350402.220000) can0 18FEE400#0e03c4017414c404
(1725350402.240000) can0 18FEE000#6278041d71ff0100
(1725350402.240000) can0 18FEE400#450354018d14c504
(1725350402.260000) can0 18FEE000#c077dc1c71ff0100
(1725350402.260000) can0 18FEE400#0703a0016e14c404
(1725350402.280000) can0 18FEE000#7478101d72ff0100
(1725350402.280000) can0 18FEE400#0c0352017e14c404
(1725350402.300000) can0 18FEE000#20780d1d71ff0100
(1725350402.300000) can0 18FEE400#160372018514c404
(1725350402.300000) can0 18FEE100#e103d703e703d703
(1725350402.300000) can0 18FEE200#8b1e551e9e1e531e
(1725350402.300000) can0 18FEE300#4d0d00051006800c
(1725350402.320000) can0 18FEE000#5178ad1c70ff0100
(1725350402.320000) can0 18FEE400#2b0374017014c504
(1725350402.340000) can0 18FEE000#9677091d70ff0100
(1725350402.340000) can0 18FEE400#fa02bb016414c504
(1725350402.360000) can0 18FEE000#e777081d71ff0100
(1725350402.360000) can0 18FEE400#02039d017e14c304
(1725350402.380000) can0 18FEE000#d177ed1c71ff0100
(1725350402.380000) can0 18FEE400#260396017f14c304
(1725350402.400000) can0 18FEE000#a477461d70ff0100
(1725350402.400000) can0 18FEE400#440381018314c304
(1725350402.400000) can0 18FEE100#dc03d203ea03d503
(1725350402.400000) can0 18FEE200#7a1e411ea61e511e
(1725350402.400000) can0 18FEE300#5a0d01050b06800c
(1725350402.420000) can0 18FEE000#a278021d70ff0100
(1725350402.420000) can0 18FEE400#1e037b017a14c304
(1725350402.440000) can0 18FEE000#e977c81c70ff0100
(1725350402.440000) can0 18FEE400#2d03d6018114c404
(1725350402.460000) can0 18FEE000#0978fa1c70ff0100
(1725350402.460000) can0 18FEE400#2e0375017b14c204
(1725350402.480000) can0 18FEE000#5778f41c70ff0100
(1725350402.480000) can0 18FEE400#12038e018114c404
(1725350402.500000) can0 18FEE000#3979f71c70ff0100
(1725350402.500000) can0 18FEE400#0b037d017a14c404
(1725350402.500000) can0 18FEE100#e103d303e603da03
(1725350402.500000) can0 18FEE200#801e541e9b1e591e
(1725350402.500000) can0 18FEE300#4f0d00051106800c
(1725350402.520000) can0 18FEE000#8a78f71c71ff0100
(1725350402.520000) can0 18FEE400#1c0372016914c404
(1725350402.540000) can0 18FEE000#7078281d71ff0100
(1725350402.540000) can0 18FEE400#4d038b017b14c504
(1725350402.560000) can0 18FEE000#8a78d51c71ff0100
(1725350402.560000) can0 18FEE400#2103a1017a14c404
(1725350402.580000) can0 18FEE000#ac77de1c70ff0100
(1725350402.580000) can0 18FEE400#230366016814c304
(1725350402.600000) can0 18FEE000#ed78e91c70ff0100
(1725350402.600000) can0 18FEE400#35039a017714c304
(1725350402.600000) can0 18FEE100#de03d303e603de03
(1725350402.600000) can0 18FEE200#751e461ea41e5f1e
(1725350402.600000) can0 18FEE300#630d00050c06800c
(1725350402.620000) can0 18FEE000#0a78b61c70ff0100
(1725350402.620000) can0 18FEE400#0703a8017214c404
(1725350402.640000) can0 18FEE000#ff77ea1c72ff0100
(1725350402.640000) can0 18FEE400#200376018614c404
(1725350402.660000) can0 18FEE000#dd78e31c70ff0100
(1725350402.660000) can0 18FEE400#26035f015914c404
(1725350402.680000) can0 18FEE000#2878f01c70ff0100
(1725350402.680000) can0 18FEE400#2403a2018714c304
(1725350402.700000) can0 18FEE000#9878ee1c72ff0100
(1725350402.700000) can0 18FEE400#2003ba017b14c404
(1725350402.700000) can0 18FEE100#e203d503ea03da03
(1725350402.700000) can0 18FEE200#771e641eaf1e671e
(1725350402.700000) can0 18FEE300#560d01051906800c
(1725350402.720000) can0 18FEE000#1779e51c70ff0100
(1725350402.720000) can0 18FEE400#4a038b018714c504
(1725350402.740000) can0 18FEE000#c677cb1c71ff0100
(1725350402.740000) can0 18FEE400#37037d017414c404
(1725350402.760000) can0 18FEE000#0e78fc1c71ff0100
(1725350402.760000) can0 18FEE400#1903a2016c14c404
(1725350402.780000) can0 18FEE000#7f78c81c71ff0100
(1725350402.780000) can0 18FEE400#1d0370018414c404
(1725350402.800000) can0 18FEE000#df77fa1c71ff0100
(1725350402.800000) can0 18FEE400#080392018514c504
(1725350402.800000) can0 18FEE100#dc03d103e703d803
(1725350402.800000) can0 18FEE200#761e3b1ea01e6c1e
(1725350402.800000) can0 18FEE300#530d01050c06800c
(1725350402.820000) can0 18FEE000#2278dc1c70ff0100
(1725350402.820000) can0 18FEE400#3d03b5018414c404
(1725350402.840000) can0 18FEE000#b677d01c71ff0100
(1725350402.840000) can0 18FEE400#2d03ae015914c304
(1725350402.860000) can0 18FEE000#1b78c91c70ff0100
(1725350402.860000) can0 18FEE400#0e037e016a14c504
(1725350402.880000) can0 18FEE000#7878e21c71ff0100
(1725350402.880000) can0 18FEE400#38037b017014c204
(1725350402.900000) can0 18FEE000#3d78071d70ff0100
(1725350402.900000) can0 18FEE400#2f036f017d14c304
(1725350402.900000) can0 18FEE100#db03d803e503dc03
(1725350402.900000) can0 18FEE200#701e2f1eaf1e5c1e
(1725350402.900000) can0 18FEE300#570d00050d06800c
(1725350402.920000) can0 18FEE000#f577021d70ff0100
(1725350402.920000) can0 18FEE400#0a036a018714c404
(1725350402.940000) can0 18FEE000#bf78a61c70ff0100
(1725350402.940000) can0 18FEE400#2803a1017914c304
(1725350402.960000) can0 18FEE000#4578f81c70ff0100
(1725350402.960000) can0 18FEE400#05038e018b14c504
(1725350402.980000) can0 18FEE000#3d78131d70ff0100
(1725350402.980000) can0 18FEE400#2b03b3014514c404
(1725350403.000000) can0 18FEE000#fa77d31c70ff0100
(1725350403.000000) can0 18FEE400#20035b016914c604
(1725350403.000000) can0 18FEE100#df03d203e703d303
(1725350403.000000) can0 18FEE200#941e381ebc1e571e
(1725350403.000000) can0 18FEE300#500d00050c06800c
(1725350403.020000) can0 18FEE000#ec78c01c70ff0100
(1725350403.020000) can0 18FEE400#450374016814c304
(1725350403.040000) can0 18FEE000#1d77dd1c71ff0100
(1725350403.040000) can0 18FEE400#22039b016e14c604
(1725350403.060000) can0 18FEE000#c4772f1d70ff0100
(1725350403.060000) can0 18FEE400#3903b8015514c304
(1725350403.080000) can0 18FEE000#03780e1d70ff0100
(1725350403.080000) can0 18FEE400#260389017a14c404
(1725350403.100000) can0 18FEE000#5e77df1c71ff0100
(1725350403.100000) can0 18FEE400#07038e018014c304
(1725350403.100000) can0 18FEE100#df03d603e503d503
(1725350403.100000) can0 18FEE200#781e391eaf1e531e
(1725350403.100000) can0 18FEE300#5d0d00050b06800c
(1725350403.120000) can0 18FEE000#47783c1d71ff0100
(1725350403.120000) can0 18FEE400#030386015114c204
(1725350403.140000) can0 18FEE000#4c79be1c71ff0100
(1725350403.140000) can0 18FEE400#300375017f14c304
(1725350403.160000) can0 18FEE000#9877f71c71ff0100
(1725350403.160000) can0 18FEE400#2b036c017a14c404
(1725350403.180000) can0 18FEE000#6378e41c72ff0100
(1725350403.180000) can0 18FEE400#fd028e017d14c404
(1725350403.200000) can0 18FEE000#2b78081d70ff0100
(1725350403.200000) can0 18FEE400#1a0368018614c404
(1725350403.200000) can0 18FEE100#dd03d103e003da03
(1725350403.200000) can0 18FEE200#891e3e1e851e5b1e
(1725350403.200000) can0 18FEE300#580d01050c06800c
(1725350403.220000) can0 18FEE000#a577d21c70ff0100
(1725350403.220000) can0 18FEE400#540393017f14c404
(1725350403.240000) can0 18FEE000#53780a1d71ff0100
(1725350403.240000) can0 18FEE400#0503d6018514c404
(1725350403.260000) can0 18FEE000#a978fe1c71ff0100
(1725350403.260000) can0 18FEE400#0e03c1016114c404
(1725350403.280000) can0 18FEE000#b577091d70ff0100
(1725350403.280000) can0 18FEE400#28037f018614c304
(1725350403.300000) can0 18FEE000#9678bc1c71ff0100
(1725350403.300000) can0 18FEE400#240376018d14c304
(1725350403.300000) can0 18FEE100#dd03d203e503db03
(1725350403.300000) can0 18FEE200#751e1e1e961e591e
(1725350403.300000) can0 18FEE300#480d01051506800c
(1725350403.320000) can0 18FEE000#1078ec1c71ff0100
(1725350403.320000) can0 18FEE400#2003b8018714c304
(1725350403.340000) can0 18FEE000#6a78b91c71ff0100
(1725350403.340000) can0 18FEE400#22039d015e14c304
(1725350403.360000) can0 18FEE000#eb77a01c71ff0100
(1725350403.360000) can0 18FEE400#01039b017a14c404
(1725350403.380000) can0 18FEE000#5779af1c71ff0100
(1725350403.380000) can0 18FEE400#1b039c017d14c304
(1725350403.400000) can0 18FEE000#3a78e21c71ff0100
(1725350403.400000) can0 18FEE400#2b037b017914c404
(1725350403.400000) can0 18FEE100#de03d603e403da03
(1725350403.400000) can0 18FEE200#6f1e271e921e591e
(1725350403.400000) can0 18FEE300#3e0d01051206800c
(1725350403.420000) can0 18FEE000#0978d91c70ff0100
(1725350403.420000) can0 18FEE400#47036e017b14c204
(1725350403.440000) can0 18FEE000#f877e61c71ff0100
(1725350403.440000) can0 18FEE400#3103ac019814c404
(1725350403.460000) can0 18FEE000#5078f51c70ff0100
(1725350403.460000) can0 18FEE400#1f0396016014c604
(1725350403.480000) can0 18FEE000#95781a1d70ff0100
(1725350403.480000) can0 18FEE400#0b038e018f14c404
(1725350403.500000) can0 18FEE000#e178b11c70ff0100
(1725350403.500000) can0 18FEE400#290385016814c404
(1725350403.500000) can0 18FEE100#e003d603e503d903
(1725350403.500000) can0 18FEE200#7e1e4d1e8f1e6e1e
(1725350403.500000) can0 18FEE300#430dff040e06800c
(1725350403.520000) can0 18FEE000#7777d51c70ff0100
(1725350403.520000) can0 18FEE400#fb025b015414c504
(1725350403.540000) can0 18FEE000#f4771f1d6fff0100
(1725350403.540000) can0 18FEE400#2f0373016e14c504
(1725350403.560000) can0 18FEE000#2678ce1c71ff0100
(1725350403.560000) can0 18FEE400#220389017a14c304
(1725350403.580000) can0 18FEE000#3378fc1c71ff0100
(1725350403.580000) can0 18FEE400#140396016c14c304
(1725350403.600000) can0 18FEE000#8678f91c71ff0100
(1725350403.600000) can0 18FEE400#17036e018314c404
(1725350403.600000) can0 18FEE100#e003d603e703d803
(1725350403.600000) can0 18FEE200#7a1e611eb01e641e
(1725350403.600000) can0 18FEE300#6c0dff041406800c
(1725350403.620000) can0 18FEE000#db77ba1c71ff0100
(1725350403.620000) can0 18FEE400#1f0376016414c304
(1725350403.640000) can0 18FEE000#e977c91c71ff0100
(1725350403.640000) can0 18FEE400#0e0393017114c504
(1725350403.660000) can0 18FEE000#de770c1d70ff0100
(1725350403.660000) can0 18FEE400#1f0379017514c304
(1725350403.680000) can0 18FEE000#a478b81c71ff0100
(1725350403.680000) can0 18FEE400#1e0380019414c504
(1725350403.700000) can0 18FEE000#d177f41c70ff0100
(1725350403.700000) can0 18FEE400#f002a3018014c504
(1725350403.700000) can0 18FEE100#de03cd03ea03d903
(1725350403.700000) can0 18FEE200#8d1e541ea61e671e
(1725350403.700000) can0 18FEE300#560d00050606800c
(1725350403.720000) can0 18FEE000#2d79c11c71ff0100
(1725350403.720000) can0 18FEE400#3703a1016614c304
(1725350403.740000) can0 18FEE000#db77c91c71ff0100
(1725350403.740000) can0 18FEE400#1503a3019314c404
(1725350403.760000) can0 18FEE000#5078311d70ff0100
(1725350403.760000) can0 18FEE400#3a038f017514c204
(1725350403.780000) can0 18FEE000#7378f31c70ff0100
(1725350403.780000) can0 18FEE400#ff02b9018614c504
(1725350403.800000) can0 18FEE000#3f77081d70ff0100
(1725350403.800000) can0 18FEE400#0803af018914c504
(1725350403.800000) can0 18FEE100#e503d403e703d703
(1725350403.800000) can0 18FEE200#691e571e951e7b1e
(1725350403.800000) can0 18FEE300#2c0d00050406800c
(1725350403.820000) can0 18FEE000#b878051d70ff0100
(1725350403.820000) can0 18FEE400#180398015f14c404
(1725350403.840000) can0 18FEE000#9e77ee1c71ff0100
(1725350403.840000) can0 18FEE400#16037e016514c404
(1725350403.860000) can0 18FEE000#9f78af1c71ff0100
(1725350403.860000) can0 18FEE400#100366017114c404
(1725350403.880000) can0 18FEE000#9078421d71ff0100
(1725350403.880000) can0 18FEE400#2c0374018114c604
(1725350403.900000) can0 18FEE000#c378141d70ff0100
(1725350403.900000) can0 18FEE400#2b03ac017e14c504
(1725350403.900000) can0 18FEE100#dc03d903e203d603
(1725350403.900000) can0 18FEE200#731e551e9e1e691e
(1725350403.900000) can0 18FEE300#3a0d01050f06800c
(1725350403.920000) can0 18FEE000#0778c71c71ff0100
(1725350403.920000) can0 18FEE400#2d03aa017a14c504
(1725350403.940000) can0 18FEE000#4477e51c70ff0100
(1725350403.940000) can0 18FEE400#2c0394016414c504
(1725350403.960000) can0 18FEE000#ed77421d70ff0100
(1725350403.960000) can0 18FEE400#2c0390018c14c504
(1725350403.980000) can0 18FEE000#1678e61c70ff0100
(1725350403.980000) can0 18FEE400#2a03b7017614c304
(1725350404.000000) can0 18FEE000#9d782b1d71ff0100
(1725350404.000000) can0 18FEE400#230388016e14c404
(1725350404.000000) can0 18FEE100#df03d203e803da03
(1725350404.000000) can0 18FEE200#8f1e3b1eb71e5d1e
(1725350404.000000) can0 18FEE300#650d00051006800c
(1725350404.020000) can0 18FEE000#4a78d21c70ff0100
(1725350404.020000) can0 18FEE400#1c0397018514c504
(1725350404.040000) can0 18FEE000#5778f41c71ff0100
(1725350404.040000) can0 18FEE400#470370016d14c504
(1725350404.060000) can0 18FEE000#d778b91c70ff0100
(1725350404.060000) can0 18FEE400#2e0358016a14c504
(1725350404.080000) can0 18FEE000#6578ed1c71ff0100
(1725350404.080000) can0 18FEE400#040396018114c504
(1725350404.100000) can0 18FEE000#2a79c91c71ff0100
(1725350404.100000) can0 18FEE400#13038a017414c404
(1725350404.100000) can0 18FEE100#dc03d103e503d903
(1725350404.100000) can0 18FEE200#841e4a1eab1e591e
(1725350404.100000) can0 18FEE300#3d0d01051406800c
(1725350404.120000) can0 18FEE000#1c78f31c70ff0100
(1725350404.120000) can0 18FEE400#26038f018814c304
(1725350404.140000) can0 18FEE000#b278e71c71ff0100
(1725350404.140000) can0 18FEE400#180383018214c304
(1725350404.160000) can0 18FEE000#6878ca1c70ff0100
(1725350404.160000) can0 18FEE400#3503a5017e14c404
(1725350404.180000) can0 18FEE000#5477061d71ff0100
(1725350404.180000) can0 18FEE400#2503ac016b14c404
(1725350404.200000) can0 18FEE000#4078b61c70ff0100
(1725350404.200000) can0 18FEE400#2e038a018914c304
(1725350404.200000) can0 18FEE100#dd03cf03e203da03
(1725350404.200000) can0 18FEE200#651e401eb21e5f1e
(1725350404.200000) can0 18FEE300#530dff040b06800c
(1725350404.220000) can0 18FEE000#8a77381d70ff0100
(1725350404.220000) can0 18FEE400#2803a1017514c504
(1725350404.240000) can0 18FEE000#2678ac1c71ff0100
(1725350404.240000) can0 18FEE400#3403b3016d14c304
(1725350404.260000) can0 18FEE000#e277f11c71ff0100
(1725350404.260000) can0 18FEE400#0c0363016a14c304
(1725350404.280000) can0 18FEE000#2478071d70ff0100
(1725350404.280000) can0 18FEE400#27038d015d14c204
(1725350404.300000) can0 18FEE000#ba78bd1c71ff0100
(1725350404.300000) can0 18FEE400#130399016f14c504
(1725350404.300000) can0 18FEE100#e103d103e803da03
(1725350404.300000) can0 18FEE200#6b1e371e961e9b1e
(1725350404.300000) can0 18FEE300#460d00051106800c
(1725350404.320000) can0 18FEE000#6778051d70ff0100
(1725350404.320000) can0 18FEE400#11038d016f14c404
(1725350404.340000) can0 18FEE000#5378d51c70ff0100
(1725350404.340000) can0 18FEE400#35037c017114c404
(1725350404.360000) can0 18FEE000#2878d71c70ff0100
(1725350404.360000) can0 18FEE400#2c035e016114c404
(1725350404.380000) can0 18FEE000#31781a1d70ff0100
(1725350404.380000) can0 18FEE400#0803a1018f14c404
(1725350404.400000) can0 18FEE000#f477131d71ff0100
(1725350404.400000) can0 18FEE400#250396017814c404
(1725350404.400000) can0 18FEE100#dd03d303ea03d803
(1725350404.400000) can0 18FEE200#991e481ea31e5a1e
(1725350404.400000) can0 18FEE300#5a0d00050e06800c
(1725350404.420000) can0 18FEE000#5778c71c70ff0100
(1725350404.420000) can0 18FEE400#3a03c2018614c404
(1725350404.440000) can0 18FEE000#4e78c71c71ff0100
(1725350404.440000) can0 18FEE400#3d0367018614c504
(1725350404.460000) can0 18FEE000#6678ff1c70ff0100
(1725350404.460000) can0 18FEE400#2703ac017514c504
(1725350404.480000) can0 18FEE000#bf788e1c70ff0100
(1725350404.480000) can0 18FEE400#3a037f016c14c504
(1725350404.500000) can0 18FEE000#df78011d70ff0100
(1725350404.500000) can0 18FEE400#110396016614c204
(1725350404.500000) can0 18FEE100#df03d503e403dc03
(1725350404.500000) can0 18FEE200#6d1e331eb11e731e
(1725350404.500000) can0 18FEE300#490d00050b06800c
(1725350404.520000) can0 18FEE000#8478eb1c70ff0100
(1725350404.520000) can0 18FEE400#4b037c017b14c404
(1725350404.540000) can0 18FEE000#4678d81c70ff0100
(1725350404.540000) can0 18FEE400#25037a016e14c504
(1725350404.560000) can0 18FEE000#c477c71c70ff0100
(1725350404.560000) can0 18FEE400#42035e017514c404
(1725350404.580000) can0 18FEE000#0f78bd1c70ff0100
(1725350404.580000) can0 18FEE400#180378017814c304
(1725350404.600000) can0 18FEE000#7d78b71c70ff0100
(1725350404.600000) can0 18FEE400#22036b018e14c404
(1725350404.600000) can0 18FEE100#df03d303e503db03
(1725350404.600000) can0 18FEE200#891e3f1e981e5c1e
(1725350404.600000) can0 18FEE300#5a0d00050e06800c
(1725350404.620000) can0 18FEE000#49783e1d70ff0100
(1725350404.620000) can0 18FEE400#1c036e016914c404
(1725350404.640000) can0 18FEE000#8e78e81c70ff0100
(1725350404.640000) can0 18FEE400#300387016f14c504
(1725350404.660000) can0 18FEE000#2179f01c71ff0100
(1725350404.660000) can0 18FEE400#4a03b2018714c504
(1725350404.680000) can0 18FEE000#6377071d71ff0100
(1725350404.680000) can0 18FEE400#fd0291018814c304
(1725350404.700000) can0 18FEE000#ad78121d70ff0100
(1725350404.700000) can0 18FEE400#12038a017914c304
(1725350404.700000) can0 18FEE100#df03ce03e303d703
(1725350404.700000) can0 18FEE200#971e491ea61e6e1e
(1725350404.700000) can0 18FEE300#400d00050a06800c
(1725350404.720000) can0 18FEE000#2a78dc1c70ff0100
(1725350404.720000) can0 18FEE400#340384018a14c504
(1725350404.740000) can0 18FEE000#5f78f71c70ff0100
(1725350404.740000) can0 18FEE400#1e03dc018814c604
(1725350404.760000) can0 18FEE000#4f78fb1c71ff0100
(1725350404.760000) can0 18FEE400#40037a017014c304
(1725350404.780000) can0 18FEE000#9278bd1c71ff0100
(1725350404.780000) can0 18FEE400#1603c9017114c404
(1725350404.800000) can0 18FEE000#8978041d70ff0100
(1725350404.800000) can0 18FEE400#06038d019014c404
(1725350404.800000) can0 18FEE100#e203d703e803d903
(1725350404.800000) can0 18FEE200#881e541e9d1e741e
(1725350404.800000) can0 18FEE300#540d01050c06800c
(1725350404.820000) can0 18FEE000#b677cc1c70ff0100
(1725350404.820000) can0 18FEE400#3c0370017814c404
(1725350404.840000) can0 18FEE000#9077f41c70ff0100
(1725350404.840000) can0 18FEE400#21038d016814c504
(1725350404.860000) can0 18FEE000#7878f11c70ff0100
(1725350404.860000) can0 18FEE400#2003bb017f14c304
(1725350404.880000) can0 18FEE000#c677351d71ff0100
(1725350404.880000) can0 18FEE400#2c038a016514c404
(1725350404.900000) can0 18FEE000#1579ee1c70ff0100
(1725350404.900000) can0 18FEE400#2503b4017914c404
(1725350404.900000) can0 18FEE100#dd03d503df03d703
(1725350404.900000) can0 18FEE200#791e301e8e1e6a1e
(1725350404.900000) can0 18FEE300#440d00050e06800c
(1725350404.920000) can0 18FEE000#ba77a51c71ff0100
(1725350404.920000) can0 18FEE400#1e0389016b14c404
(1725350404.940000) can0 18FEE000#8178be1c71ff0100
(1725350404.940000) can0 18FEE400#3903b2017614c404
(1725350404.960000) can0 18FEE000#8a78df1c71ff0100
(1725350404.960000) can0 18FEE400#2a03be016c14c404
(1725350404.980000) can0 18FEE000#4478b41c70ff0100
(1725350404.980000) can0 18FEE400#2c037a017514c404
(1725350405.000000) can0 18FEE000#4078071d71ff0100
(1725350405.000000) can0 18FEE400#150389016314c304
(1725350405.000000) can0 18FEE100#de03cd03e803d903
(1725350405.000000) can0 18FEE200#951e521e951e681e
(1725350405.000000) can0 18FEE300#3e0dff041206800c
(1725350405.020000) can0 18FEE000#0f78301d71ff0100
(1725350405.020000) can0 18FEE400#3003cf016214c304
(1725350405.040000) can0 18FEE000#6678081d70ff0100
(1725350405.040000) can0 18FEE400#160378017a14c504
(1725350405.060000) can0 18FEE000#e477fa1c70ff0100
(1725350405.060000) can0 18FEE400#150393018d14c404
(1725350405.080000) can0 18FEE000#d477cd1c70ff0100
(1725350405.080000) can0 18FEE400#3e039d017514c504
(1725350405.100000) can0 18FEE000#e177021d72ff0100
(1725350405.100000) can0 18FEE400#09038f018214c504
(1725350405.100000) can0 18FEE100#dd03d403e603dc03
(1725350405.100000) can0 18FEE200#791e321e941e681e
(1725350405.100000) can0 18FEE300#2a0d00051506800c
(1725350405.120000) can0 18FEE000#8578381d71ff0100
(1725350405.120000) can0 18FEE400#1f03b3015914c404
(1725350405.140000) can0 18FEE000#0a78ed1c70ff0100
(1725350405.140000) can0 18FEE400#3b0363018714c604
(1725350405.160000) can0 18FEE000#7678f01c71ff0100
(1725350405.160000) can0 18FEE400#f10266015914c404
(1725350405.180000) can0 18FEE000#03791f1d71ff0100
(1725350405.180000) can0 18FEE400#fe02b3018b14c504
(1725350405.200000) can0 18FEE000#e578de1c71ff0100
(1725350405.200000) can0 18FEE400#24039d017f14c504
(1725350405.200000) can0 18FEE100#df03d103e703de03
(1725350405.200000) can0 18FEE200#701e541e951e741e
(1725350405.200000) can0 18FEE300#5a0d00051306800c
(1725350405.220000) can0 18FEE000#7078f81c70ff0100
(1725350405.220000) can0 18FEE400#270380019414c504
(1725350405.240000) can0 18FEE000#ed77e01c70ff0100
(1725350405.240000) can0 18FEE400#28038b018014c504
(1725350405.260000) can0 18FEE000#2a78211d70ff0100
(1725350405.260000) can0 18FEE400#33039b019e14c204
(1725350405.280000) can0 18FEE000#9878fe1c71ff0100
(1725350405.280000) can0 18FEE400#2803b6016a14c304
(1725350405.300000) can0 18FEE000#d978e81c70ff0100
(1725350405.300000) can0 18FEE400#1e038601a514c404
(1725350405.300000) can0 18FEE100#e003d503ec03d403
(1725350405.300000) can0 18FEE200#891e411e8a1e6b1e
(1725350405.300000) can0 18FEE300#400d01051006800c
(1725350405.320000) can0 18FEE000#ed770a1d70ff0100
(1725350405.320000) can0 18FEE400#1503bc017314c504
(1725350405.340000) can0 18FEE000#9978e71c70ff0100
(1725350405.340000) can0 18FEE400#1f0377018814c404
(1725350405.360000) can0 18FEE000#d778eb1c71ff0100
(1725350405.360000) can0 18FEE400#1c039c016b14c404
(1725350405.380000) can0 18FEE000#6378d11c71ff0100
(1725350405.380000) can0 18FEE400#1d0389016f14c504
(1725350405.400000) can0 18FEE000#6e78fc1c70ff0100
(1725350405.400000) can0 18FEE400#2703ac017314c204
(1725350405.400000) can0 18FEE100#d903d303e303da03
(1725350405.400000) can0 18FEE200#771e491eb11e611e
(1725350405.400000) can0 18FEE300#430d00050c06800c
(1725350405.420000) can0 18FEE000#3178ed1c70ff0100
(1725350405.420000) can0 18FEE400#280375018014c404
(1725350405.440000) can0 18FEE000#aa77b51c71ff0100
(1725350405.440000) can0 18FEE400#2003c5016614c504
(1725350405.460000) can0 18FEE000#8578b71c71ff0100
(1725350405.460000) can0 18FEE400#29037a016714c404
(1725350405.480000) can0 18FEE000#d677be1c71ff0100
(1725350405.480000) can0 18FEE400#f40270017a14c304
(1725350405.500000) can0 18FEE000#7178c81c71ff0100
(1725350405.500000) can0 18FEE400#200396018114c504
(1725350405.500000) can0 18FEE100#e003cf03e503d803
(1725350405.500000) can0 18FEE200#871e4f1eb01e821e
(1725350405.500000) can0 18FEE300#420dff041306800c
(1725350405.520000) can0 18FEE000#0878e71c71ff0100
(1725350405.520000) can0 18FEE400#2503a9017714c404
(1725350405.540000) can0 18FEE000#7977071d70ff0100
(1725350405.540000) can0 18FEE400#2d037f016814c404
(1725350405.560000) can0 18FEE000#7378071d70ff0100
(1725350405.560000) can0 18FEE400#1403a8017914c404
(1725350405.580000) can0 18FEE000#4a78e11c71ff0100
(1725350405.580000) can0 18FEE400#2203ac016e14c404
(1725350405.600000) can0 18FEE000#4778e51c70ff0100
(1725350405.600000) can0 18FEE400#4c039f018914c404
(1725350405.600000) can0 18FEE100#e003d703e503da03
(1725350405.600000) can0 18FEE200#941e361eac1e671e
(1725350405.600000) can0 18FEE300#770d00050806800c
(1725350405.620000) can0 18FEE000#5678cf1c70ff0100
(1725350405.620000) can0 18FEE400#40039b018c14c404
(1725350405.640000) can0 18FEE000#2a788c1c70ff0100
(1725350405.640000) can0 18FEE400#2103d3016e14c404
(1725350405.660000) can0 18FEE000#0b78ec1c71ff0100
(1725350405.660000) can0 18FEE400#2e0384016514c404
(1725350405.680000) can0 18FEE000#b578e51c70ff0100
(1725350405.680000) can0 18FEE400#13039f017b14c504
(1725350405.700000) can0 18FEE000#1879ec1c71ff0100
(1725350405.700000) can0 18FEE400#3103ae018014c404
(1725350405.700000) can0 18FEE100#dd03cf03e703dd03
(1725350405.700000) can0 18FEE200#721e591eac1e691e
(1725350405.700000) can0 18FEE300#410d00051706800c
(1725350405.720000) can0 18FEE000#4778ac1c71ff0100
(1725350405.720000) can0 18FEE400#100364018b14c404
(1725350405.740000) can0 18FEE000#cb78b01c70ff0100
(1725350405.740000) can0 18FEE400#150395017f14c404
(1725350405.760000) can0 18FEE000#4878b51c71ff0100
(1725350405.760000) can0 18FEE400#070383017614c404
(1725350405.780000) can0 18FEE000#0b78171d70ff0100
(1725350405.780000) can0 18FEE400#2e038a017314c404
(1725350405.800000) can0 18FEE000#2978e01c71ff0100
(1725350405.800000) can0 18FEE400#2303a5017614c304
(1725350405.800000) can0 18FEE100#e003d103e303d903
(1725350405.800000) can0 18FEE200#861e471eb11e5f1e
(1725350405.800000) can0 18FEE300#120dff041306800c
(1725350405.820000) can0 18FEE000#1c79261d71ff0100
(1725350405.820000) can0 18FEE400#2b0393018414c404
(1725350405.840000) can0 18FEE000#2678e81c71ff0100
(1725350405.840000) can0 18FEE400#3103c9017114c404
(1725350405.860000) can0 18FEE000#92780c1d71ff0100
(1725350405.860000) can0 18FEE400#0f03aa017d14c404
(1725350405.880000) can0 18FEE000#fe77e91c71ff0100
(1725350405.880000) can0 18FEE400#340375016614c604
(1725350405.900000) can0 18FEE000#1a78b31c71ff0100
(1725350405.900000) can0 18FEE400#23036c017614c604
(1725350405.900000) can0 18FEE100#db03cf03e703d803
(1725350405.900000) can0 18FEE200#821e3e1e9f1e581e
(1725350405.900000) can0 18FEE300#540d00051106800c
(1725350405.920000) can0 18FEE000#4f78e71c70ff0100
(1725350405.920000) can0 18FEE400#0103ab016514c204
(1725350405.940000) can0 18FEE000#8078d81c71ff0100
(1725350405.940000) can0 18FEE400#02035b018914c504
(1725350405.960000) can0 18FEE000#a378e91c71ff0100
(1725350405.960000) can0 18FEE400#3303a5017514c404
(1725350405.980000) can0 18FEE000#8078dd1c70ff0100
(1725350405.980000) can0 18FEE400#1b0393017a14c404
(1725350406.000000) can0 18FEE000#1778231d70ff0100
(1725350406.000000) can0 18FEE400#1f0382018314c604
(1725350406.000000) can0 18FEE100#dc03d603e403d603
(1725350406.000000) can0 18FEE200#7e1e391ea81e791e
(1725350406.000000) can0 18FEE300#670dff040d06800c
(1725350406.020000) can0 18FEE000#07780c1d72ff0100
(1725350406.020000) can0 18FEE400#1b03b1018a14c404
(1725350406.040000) can0 18FEE000#6379bc1c71ff0100
(1725350406.040000) can0 18FEE400#130394017514c204
(1725350406.060000) can0 18FEE000#1f782e1d70ff0100
(1725350406.060000) can0 18FEE400#0103a5018014c604
(1725350406.080000) can0 18FEE000#5179d71c70ff0100
(1725350406.080000) can0 18FEE400#0b038c017614c604
(1725350406.100000) can0 18FEE000#5a78011d70ff0100
(1725350406.100000) can0 18FEE400#0603b5017814c404
(1725350406.100000) can0 18FEE100#db03d703e503dc03
(1725350406.100000) can0 18FEE200#851e451e971e531e
(1725350406.100000) can0 18FEE300#540d01050e06800c
(1725350406.120000) can0 18FEE000#dd78e61c70ff0100
(1725350406.120000) can0 18FEE400#210389018214c504
(1725350406.140000) can0 18FEE000#5c78e41c70ff0100
(1725350406.140000) can0 18FEE400#180368018214c404
(1725350406.160000) can0 18FEE000#8578031d71ff0100
(1725350406.160000) can0 18FEE400#2303cf017214c604
(1725350406.180000) can0 18FEE000#0178d11c70ff0100
(1725350406.180000) can0 18FEE400#14035a017e14c404
(1725350406.200000) can0 18FEE000#3f78971c71ff0100
(1725350406.200000) can0 18FEE400#0a037f017214c504
(1725350406.200000) can0 18FEE100#e103d503e703d803
(1725350406.200000) can0 18FEE200#741e561ea31e641e
(1725350406.200000) can0 18FEE300#6b0d01050f06800c
(1725350406.220000) can0 18FEE000#0979c51c71ff0100
(1725350406.220000) can0 18FEE400#100377017914c404
(1725350406.240000) can0 18FEE000#1e79d81c71ff0100
(1725350406.240000) can0 18FEE400#1a039e017b14c304
(1725350406.260000) can0 18FEE000#6978a31c71ff0100
(1725350406.260000) can0 18FEE400#10037b018a14c504
(1725350406.280000) can0 18FEE000#3c78ef1c70ff0100
(1725350406.280000) can0 18FEE400#3d0352017314c404
(1725350406.300000) can0 18FEE000#a678f41c71ff0100
(1725350406.300000) can0 18FEE400#21037a017514c604
(1725350406.300000) can0 18FEE100#df03d403e203d703
(1725350406.300000) can0 18FEE200#7c1e431ea81e691e
(1725350406.300000) can0 18FEE300#260dff041206800c
(1725350406.320000) can0 18FEE000#3d77041d71ff0100
(1725350406.320000) can0 18FEE400#2c039f018a14c304
(1725350406.340000) can0 18FEE000#9877041d71ff0100
(1725350406.340000) can0 18FEE400#07038e018014c504
(1725350406.360000) can0 18FEE000#0778fa1c70ff0100
(1725350406.360000) can0 18FEE400#2b0380018c14c504
(1725350406.380000) can0 18FEE000#34781d1d70ff0100
(1725350406.380000) can0 18FEE400#060395016b14c304
(1725350406.400000) can0 18FEE000#af77041d70ff0100
(1725350406.400000) can0 18FEE400#590374016d14c304
(1725350406.400000) can0 18FEE100#de03d303e903da03
(1725350406.400000) can0 18FEE200#6e1e521ea01e6d1e
(1725350406.400000) can0 18FEE300#390d02050906800c
(1725350406.420000) can0 18FEE000#2178d91c71ff0100
(1725350406.420000) can0 18FEE400#2a039f017214c404
(1725350406.440000) can0 18FEE000#1578fa1c71ff0100
(1725350406.440000) can0 18FEE400#0f0387016e14c404
(1725350406.460000) can0 18FEE000#d3782a1d70ff0100
(1725350406.460000) can0 18FEE400#120379017014c304
(1725350406.480000) can0 18FEE000#a478b01c70ff0100
(1725350406.480000) can0 18FEE400#10037e019114c304
(1725350406.500000) can0 18FEE000#51793f1d70ff0100
(1725350406.500000) can0 18FEE400#030399016414c304
(1725350406.500000) can0 18FEE100#df03ce03e203d903
(1725350406.500000) can0 18FEE200#8f1e391e9b1e641e
(1725350406.500000) can0 18FEE300#2f0d01051006800c
(1725350406.520000) can0 18FEE000#de78bf1c70ff0100
(1725350406.520000) can0 18FEE400#1703a8016114c204
(1725350406.540000) can0 18FEE000#4978a91c70ff0100
(1725350406.540000) can0 18FEE400#0a0381015e14c504
(1725350406.560000) can0 18FEE000#8b78051d71ff0100
(1725350406.560000) can0 18FEE400#04037c017214c304
(1725350406.580000) can0 18FEE000#c577d71c70ff0100
(1725350406.580000) can0 18FEE400#2903cc017214c304
(1725350406.600000) can0 18FEE000#e6770f1d72ff0100
(1725350406.600000) can0 18FEE400#100388018314c404
(1725350406.600000) can0 18FEE100#e003d103e103d803
(1725350406.600000) can0 18FEE200#891e551e9e1e661e
(1725350406.600000) can0 18FEE300#500dff041706800c
(1725350406.620000) can0 18FEE000#2378071d70ff0100
(1725350406.620000) can0 18FEE400#3d0376017b14c404
(1725350406.640000) can0 18FEE000#8278251d71ff0100
(1725350406.640000) can0 18FEE400#f502b7016414c404
(1725350406.660000) can0 18FEE000#6778ed1c71ff0100
(1725350406.660000) can0 18FEE400#4e03bf015d14c404
(1725350406.680000) can0 18FEE000#6178f01c71ff0100
(1725350406.680000) can0 18FEE400#0b034f017814c204
(1725350406.700000) can0 18FEE000#f877061d71ff0100
(1725350406.700000) can0 18FEE400#200393017614c404
(1725350406.700000) can0 18FEE100#e003d103dd03db03
(1725350406.700000) can0 18FEE200#871e371e991e5f1e
(1725350406.700000) can0 18FEE300#310dff041106800c
(1725350406.720000) can0 18FEE000#1078d81c71ff0100
(1725350406.720000) can0 18FEE400#33038a016d14c504
(1725350406.740000) can0 18FEE000#0079fa1c70ff0100
(1725350406.740000) can0 18FEE400#0d03a0015a14c404
(1725350406.760000) can0 18FEE000#fe77e81c70ff0100
(1725350406.760000) can0 18FEE400#0a0390017214c404
(1725350406.780000) can0 18FEE000#cd78b51c71ff0100
(1725350406.780000) can0 18FEE400#2b03b3018314c404
(1725350406.800000) can0 18FEE000#cd78151d70ff0100
(1725350406.800000) can0 18FEE400#1303c1018214c304
(1725350406.800000) can0 18FEE100#de03d503e503dd03
(1725350406.800000) can0 18FEE200#8f1e3c1eae1e851e
(1725350406.800000) can0 18FEE300#5d0dfe040e06800c
(1725350406.820000) can0 18FEE000#0c79ec1c70ff0100
(1725350406.820000) can0 18FEE400#29036f017714c404
(1725350406.840000) can0 18FEE000#1e78fb1c70ff0100
(1725350406.840000) can0 18FEE400#3303b3016f14c404
(1725350406.860000) can0 18FEE000#d7770b1d71ff0100
(1725350406.860000) can0 18FEE400#060394019f14c604
(1725350406.880000) can0 18FEE000#4578e51c70ff0100
(1725350406.880000) can0 18FEE400#170373017a14c404
(1725350406.900000) can0 18FEE000#8578b21c71ff0100
(1725350406.900000) can0 18FEE400#2f03a4019114c304
(1725350406.900000) can0 18FEE100#db03d103e603da03
(1725350406.900000) can0 18FEE200#7f1e3d1e7b1e781e
(1725350406.900000) can0 18FEE300#450d00051106800c
(1725350406.920000) can0 18FEE000#9b78b01c71ff0100
(1725350406.920000) can0 18FEE400#ef025f017814c404
(1725350406.940000) can0 18FEE000#a778031d70ff0100
(1725350406.940000) can0 18FEE400#380377019f14c104
(1725350406.960000) can0 18FEE000#ce78ad1c71ff0100
(1725350406.960000) can0 18FEE400#4103c5018d14c304
(1725350406.980000) can0 18FEE000#bb77001d70ff0100
(1725350406.980000) can0 18FEE400#2f03c7018514c404
(1725350407.000000) can0 18FEE000#a777fe1c71ff0100
(1725350407.000000) can0 18FEE400#2c03c2016f14c404
(1725350407.000000) can0 18FEE100#da03d203e403dc03
(1725350407.000000) can0 18FEE200#781e5d1e871e5c1e
(1725350407.000000) can0 18FEE300#1e0d01050c06800c
(1725350407.020000) can0 18FEE000#1b78211d71ff0100
(1725350407.020000) can0 18FEE400#1e034c017b14c404
(1725350407.040000) can0 18FEE000#b078e41c70ff0100
(1725350407.040000) can0 18FEE400#ff0292017814c404
(1725350407.060000) can0 18FEE000#ea77eb1c6fff0100
(1725350407.060000) can0 18FEE400#200399017a14c404
(1725350407.080000) can0 18FEE000#a378db1c70ff0100
(1725350407.080000) can0 18FEE400#3f03ca017c14c404
(1725350407.100000) can0 18FEE000#b078e11c70ff0100
(1725350407.100000) can0 18FEE400#f902ae015314c304
(1725350407.100000) can0 18FEE100#dd03d903e803dc03
(1725350407.100000) can0 18FEE200#871e4d1e9d1e701e
(1725350407.100000) can0 18FEE300#380dff040e06800c
(1725350407.120000) can0 18FEE000#86781f1d71ff0100
(1725350407.120000) can0 18FEE400#0a0398018614c504
(1725350407.140000) can0 18FEE000#5d78d71c71ff0100
(1725350407.140000) can0 18FEE400#1a039c016f14c204
(1725350407.160000) can0 18FEE000#6478181d70ff0100
(1725350407.160000) can0 18FEE400#470376015d14c304
(1725350407.180000) can0 18FEE000#5878c61c71ff0100
(1725350407.180000) can0 18FEE400#3003a5017e14c104
(1725350407.200000) can0 18FEE000#6178061d71ff0100
(1725350407.200000) can0 18FEE400#3f038d018814c304
(1725350407.200000) can0 18FEE100#e103d403e203d403
(1725350407.200000) can0 18FEE200#7d1e381e981e7c1e
(1725350407.200000) can0 18FEE300#450dfd041606800c
(1725350407.220000) can0 18FEE000#1c781b1d70ff0100
(1725350407.220000) can0 18FEE400#270396019f14c404
(1725350407.240000) can0 18FEE000#ea77c61c71ff0100
(1725350407.240000) can0 18FEE400#3f03a6016a14c404
(1725350407.260000) can0 18FEE000#4978041d72ff0100
(1725350407.260000) can0 18FEE400#19039e019b14c204
(1725350407.280000) can0 18FEE000#7878bf1c70ff0100
(1725350407.280000) can0 18FEE400#1003cf018a14c604
(1725350407.300000) can0 18FEE000#1378bf1c71ff0100
(1725350407.300000) can0 18FEE400#25036d016714c504
(1725350407.300000) can0 18FEE100#e003d403e803d503
(1725350407.300000) can0 18FEE200#8b1e3c1e9d1e701e
(1725350407.300000) can0 18FEE300#350dff041406800c
(1725350407.320000) can0 18FEE000#4378e81c71ff0100
(1725350407.320000) can0 18FEE400#10037b018014c604
(1725350407.340000) can0 18FEE000#4d78dd1c71ff0100
(1725350407.340000) can0 18FEE400#2403c1017d14c404
(1725350407.360000) can0 18FEE000#0578f81c70ff0100
(1725350407.360000) can0 18FEE400#2303b8017714c304
(1725350407.380000) can0 18FEE000#1278d61c71ff0100
(1725350407.380000) can0 18FEE400#4103c0016e14c304
(1725350407.400000) can0 18FEE000#7477e31c72ff0100
(1725350407.400000) can0 18FEE400#fe02a8016614c304
(1725350407.400000) can0 18FEE100#d603d203ec03d503
(1725350407.400000) can0 18FEE200#7a1e401e9f1e6c1e
(1725350407.400000) can0 18FEE300#510d01051406800c
(1725350407.420000) can0 18FEE000#cf773a1d71ff0100
(1725350407.420000) can0 18FEE400#3503ba016e14c304
(1725350407.440000) can0 18FEE000#e378381d71ff0100
(1725350407.440000) can0 18FEE400#1203ab018914c404
(1725350407.460000) can0 18FEE000#fe78df1c71ff0100
(1725350407.460000) can0 18FEE400#0c03b4016314c704
(1725350407.480000) can0 18FEE000#4c78e21c70ff0100
(1725350407.480000) can0 18FEE400#f90297018614c304
(1725350407.500000) can0 18FEE000#a378fe1c70ff0100
(1725350407.500000) can0 18FEE400#2703b0019414c404
(1725350407.500000) can0 18FEE100#df03d303e303da03
(1725350407.500000) can0 18FEE200#811e471ea41e591e
(1725350407.500000) can0 18FEE300#280d00050e06800c
(1725350407.520000) can0 18FEE000#5a78d91c71ff0100
(1725350407.520000) can0 18FEE400#17038a018814c404
(1725350407.540000) can0 18FEE000#ae78091d70ff0100
(1725350407.540000) can0 18FEE400#4103ab017814c404
(1725350407.560000) can0 18FEE000#e177061d6fff0100
(1725350407.560000) can0 18FEE400#08039d017d14c404
(1725350407.580000) can0 18FEE000#9277e11c71ff0100
(1725350407.580000) can0 18FEE400#1903bf016714c304
(1725350407.600000) can0 18FEE000#0c78c81c71ff0100
(1725350407.600000) can0 18FEE400#2503c4016614c404
(1725350407.600000) can0 18FEE100#e503d303e903d903
(1725350407.600000) can0 18FEE200#751e441eb01e541e
(1725350407.600000) can0 18FEE300#4e0d00050d06800c
(1725350407.620000) can0 18FEE000#69780c1d70ff0100
(1725350407.620000) can0 18FEE400#1a039f018f14c404
(1725350407.640000) can0 18FEE000#c177b41c71ff0100
(1725350407.640000) can0 18FEE400#2803b4017414c304
(1725350407.660000) can0 18FEE000#d678da1c71ff0100
(1725350407.660000) can0 18FEE400#1d03d4017c14c404
(1725350407.680000) can0 18FEE000#6578df1c6fff0100
(1725350407.680000) can0 18FEE400#32039c018314c404
(1725350407.700000) can0 18FEE000#5e78c51c70ff0100
(1725350407.700000) can0 18FEE400#fe0267017a14c404
(1725350407.700000) can0 18FEE100#dd03cd03e803d803
(1725350407.700000) can0 18FEE200#831e391eb51e5a1e
(1725350407.700000) can0 18FEE300#4d0dff040806800c
(1725350407.720000) can0 18FEE000#1a78cc1c70ff0100
(1725350407.720000) can0 18FEE400#3c0368015514c604
(1725350407.740000) can0 18FEE000#f778e81c70ff0100
(1725350407.740000) can0 18FEE400#f502a5016e14c504
(1725350407.760000) can0 18FEE000#1e78021d70ff0100
(1725350407.760000) can0 18FEE400#36038e017814c404
(1725350407.780000) can0 18FEE000#5d78fc1c70ff0100
(1725350407.780000) can0 18FEE400#2803a5016c14c404
(1725350407.800000) can0 18FEE000#2f78f91c71ff0100
(1725350407.800000) can0 18FEE400#29037b017514c404
(1725350407.800000) can0 18FEE100#db03d303e503d803
(1725350407.800000) can0 18FEE200#7b1e501ea51e561e
(1725350407.800000) can0 18FEE300#620dff040e06800c
(1725350407.820000) can0 18FEE000#7678d91c71ff0100
(1725350407.820000) can0 18FEE400#f9027a017314c404
(1725350407.840000) can0 18FEE000#2d780c1d70ff0100
(1725350407.840000) can0 18FEE400#1203c7016d14c304
(1725350407.860000) can0 18FEE000#2978b21c70ff0100
(1725350407.860000) can0 18FEE400#380389018714c304
(1725350407.880000) can0 18FEE000#4178d31c70ff0100
(1725350407.880000) can0 18FEE400#430390017c14c404
(1725350407.900000) can0 18FEE000#c278d41c71ff0100
(1725350407.900000) can0 18FEE400#1903c8018514c404
(1725350407.900000) can0 18FEE100#df03cd03e603d703
(1725350407.900000) can0 18FEE200#7d1e371e981e691e
(1725350407.900000) can0 18FEE300#2d0d00051106800c
(1725350407.920000) can0 18FEE000#7778c51c70ff0100
(1725350407.920000) can0 18FEE400#0a0381016a14c304
(1725350407.940000) can0 18FEE000#4779ca1c70ff0100
(1725350407.940000) can0 18FEE400#1b037f015d14c504
(1725350407.960000) can0 18FEE000#d677f91c70ff0100
(1725350407.960000) can0 18FEE400#f40279018414c204
(1725350407.980000) can0 18FEE000#f078ed1c70ff0100
(1725350407.980000) can0 18FEE400#0d0373016514c504
(1725350408.000000) can0 18FEE000#0e780a1d71ff0100
(1725350408.000000) can0 18FEE400#220397017514c404
(1725350408.000000) can0 18FEE100#dd03d503e703d803
(1725350408.000000) can0 18FEE200#881e3c1ea81e7a1e
(1725350408.000000) can0 18FEE300#410d01051506800c
(1725350408.020000) can0 18FEE000#9f78071d70ff0100
(1725350408.020000) can0 18FEE400#16036c017414c304
(1725350408.040000) can0 18FEE000#b777ce1c71ff0100
(1725350408.040000) can0 18FEE400#170394017514c504
(1725350408.060000) can0 18FEE000#ad77d31c70ff0100
(1725350408.060000) can0 18FEE400#2203a3015114c104
(1725350408.080000) can0 18FEE000#9877d41c72ff0100
(1725350408.080000) can0 18FEE400#2803a0019414c304
(1725350408.100000) can0 18FEE000#ae77b21c71ff0100
(1725350408.100000) can0 18FEE400#150396018014c104
(1725350408.100000) can0 18FEE100#df03d103e703d503
(1725350408.100000) can0 18FEE200#841e461e781e601e
(1725350408.100000) can0 18FEE300#360dff040e06800c
(1725350408.120000) can0 18FEE000#9278e01c70ff0100
(1725350408.120000) can0 18FEE400#f102b9015c14c404
(1725350408.140000) can0 18FEE000#3478ee1c70ff0100
(1725350408.140000) can0 18FEE400#3a0350017514c304
(1725350408.160000) can0 18FEE000#4578101d70ff0100
(1725350408.160000) can0 18FEE400#3a036f018614c504
(1725350408.180000) can0 18FEE000#bc77d91c70ff0100
(1725350408.180000) can0 18FEE400#0c03b7017e14c404
(1725350408.200000) can0 18FEE000#2778241d71ff0100
(1725350408.200000) can0 18FEE400#2f037d016414c404
(1725350408.200000) can0 18FEE100#df03d503e103db03
(1725350408.200000) can0 18FEE200#731e4a1e9d1e581e
(1725350408.200000) can0 18FEE300#330dff040e06800c
(1725350408.220000) can0 18FEE000#fd77d91c71ff0100
(1725350408.220000) can0 18FEE400#1a0381017114c404
(1725350408.240000) can0 18FEE000#d677b01c71ff0100
(1725350408.240000) can0 18FEE400#0d0375019914c404
(1725350408.260000) can0 18FEE000#ad78d81c70ff0100
(1725350408.260000) can0 18FEE400#160387015f14c404
(1725350408.280000) can0 18FEE000#c878b81c71ff0100
(1725350408.280000) can0 18FEE400#2f0380016314c404
(1725350408.300000) can0 18FEE000#6678f21c70ff0100
(1725350408.300000) can0 18FEE400#1703a2017314c504
(1725350408.300000) can0 18FEE100#dd03d803e203d903
(1725350408.300000) can0 18FEE200#6d1e371eae1e5e1e
(1725350408.300000) can0 18FEE300#5b0d01050d06800c
(1725350408.320000) can0 18FEE000#6c78c81c71ff0100
(1725350408.320000) can0 18FEE400#220382016714c404
(1725350408.340000) can0 18FEE000#9278e61c70ff0100
(1725350408.340000) can0 18FEE400#15037d016d14c504
(1725350408.360000) can0 18FEE000#7678e41c71ff0100
(1725350408.360000) can0 18FEE400#0f0364017a14c304
(1725350408.380000) can0 18FEE000#b577ff1c71ff0100
(1725350408.380000) can0 18FEE400#130381017f14c304
(1725350408.400000) can0 18FEE000#3c78f71c71ff0100
(1725350408.400000) can0 18FEE400#150390015914c604
(1725350408.400000) can0 18FEE100#df03d103e803d603
(1725350408.400000) can0 18FEE200#6e1e4e1ea11e571e
(1725350408.400000) can0 18FEE300#610d02050f06800c
(1725350408.420000) can0 18FEE000#ca78cd1c71ff0100
(1725350408.420000) can0 18FEE400#00036e018514c304
(1725350408.440000) can0 18FEE000#6778141d71ff0100
(1725350408.440000) can0 18FEE400#03039e016814c504
(1725350408.460000) can0 18FEE000#d277dd1c70ff0100
(1725350408.460000) can0 18FEE400#1303a4017a14c304
(1725350408.480000) can0 18FEE000#9e78ef1c71ff0100
(1725350408.480000) can0 18FEE400#140388016014c504
(1725350408.500000) can0 18FEE000#44789d1c6fff0100
(1725350408.500000) can0 18FEE400#220386017414c404
(1725350408.500000) can0 18FEE100#e003d003e903da03
(1725350408.500000) can0 18FEE200#671e441eb41e5d1e
(1725350408.500000) can0 18FEE300#4b0d0105fe05800c
(1725350408.520000) can0 18FEE000#4578e01c70ff0100
(1725350408.520000) can0 18FEE400#fb02a6017a14c404
(1725350408.540000) can0 18FEE000#1878a01c70ff0100
(1725350408.540000) can0 18FEE400#270362018614c404
(1725350408.560000) can0 18FEE000#21780d1d70ff0100
(1725350408.560000) can0 18FEE400#0c0380018614c504
(1725350408.580000) can0 18FEE000#cf77c31c71ff0100
(1725350408.580000) can0 18FEE400#3a0353017b14c404
(1725350408.600000) can0 18FEE000#6677e91c71ff0100
(1725350408.600000) can0 18FEE400#0b039c018f14c504
(1725350408.600000) can0 18FEE100#e503d203e803d403
(1725350408.600000) can0 18FEE200#721e441eb41e4b1e
(1725350408.600000) can0 18FEE300#540dfe040a06800c
(1725350408.620000) can0 18FEE000#0978d31c71ff0100
(1725350408.620000) can0 18FEE400#290396018a14c204
(1725350408.640000) can0 18FEE000#c777cd1c70ff0100
(1725350408.640000) can0 18FEE400#160393017614c404
(1725350408.660000) can0 18FEE000#df77cd1c71ff0100
(1725350408.660000) can0 18FEE400#02038d016314c604
(1725350408.680000) can0 18FEE000#0579e71c71ff0100
(1725350408.680000) can0 18FEE400#110361018d14c504
(1725350408.700000) can0 18FEE000#3b78221d70ff0100
(1725350408.700000) can0 18FEE400#0003d0018014c404
(1725350408.700000) can0 18FEE100#e203d603ee03d703
(1725350408.700000) can0 18FEE200#961e521ebf1e7f1e
(1725350408.700000) can0 18FEE300#400dff040906800c
(1725350408.720000) can0 18FEE000#6d78c01c71ff0100
(1725350408.720000) can0 18FEE400#2403a1018714c504
(1725350408.740000) can0 18FEE000#70787e1c70ff0100
(1725350408.740000) can0 18FEE400#210392019514c404
(1725350408.760000) can0 18FEE000#0079ef1c71ff0100
(1725350408.760000) can0 18FEE400#2d039c018214c304
(1725350408.780000) can0 18FEE000#8678db1c71ff0100
(1725350408.780000) can0 18FEE400#1a0387018914c304
(1725350408.800000) can0 18FEE000#c977201d71ff0100
(1725350408.800000) can0 18FEE400#1003bf016e14c404
(1725350408.800000) can0 18FEE100#e003d603e103d803
(1725350408.800000) can0 18FEE200#791e3d1e881e521e
(1725350408.800000) can0 18FEE300#4b0d00051106800c
(1725350408.820000) can0 18FEE000#9f77bd1c70ff0100
(1725350408.820000) can0 18FEE400#0c03c2016814c404
(1725350408.840000) can0 18FEE000#1278e71c71ff0100
(1725350408.840000) can0 18FEE400#120379018714c404
(1725350408.860000) can0 18FEE000#3b78d21c71ff0100
(1725350408.860000) can0 18FEE400#44039b019214c404
(1725350408.880000) can0 18FEE000#f177c81c70ff0100
(1725350408.880000) can0 18FEE400#270398018f14c604
(1725350408.900000) can0 18FEE000#4f78e11c71ff0100
(1725350408.900000) can0 18FEE400#01037b016314c104
(1725350408.900000) can0 18FEE100#e003d303e803dc03
(1725350408.900000) can0 18FEE200#781e521e931e411e
(1725350408.900000) can0 18FEE300#600d01051106800c
(1725350408.920000) can0 18FEE000#4e78de1c72ff0100
(1725350408.920000) can0 18FEE400#1d039e017014c404
(1725350408.940000) can0 18FEE000#eb78de1c70ff0100
(1725350408.940000) can0 18FEE400#4a03a7016714c504
(1725350408.960000) can0 18FEE000#d377181d71ff0100
(1725350408.960000) can0 18FEE400#3a0399017414c604
(1725350408.980000) can0 18FEE000#7578f51c70ff0100
(1725350408.980000) can0 18FEE400#32039c018e14c304
(1725350409.000000) can0 18FEE000#9c78411d71ff0100
(1725350409.000000) can0 18FEE400#100372017314c504
(1725350409.000000) can0 18FEE100#e103d303ea03da03
(1725350409.000000) can0 18FEE200#851e3a1e781e6f1e
(1725350409.000000) can0 18FEE300#5b0d00051506800c
(1725350409.020000) can0 18FEE000#5478981c70ff0100
(1725350409.020000) can0 18FEE400#250383018014c504
(1725350409.040000) can0 18FEE000#e677f01c70ff0100
(1725350409.040000) can0 18FEE400#270393017d14c304
(1725350409.060000) can0 18FEE000#a178511d71ff0100
(1725350409.060000) can0 18FEE400#1403b0016914c504
(1725350409.080000) can0 18FEE000#9878ef1c71ff0100
(1725350409.080000) can0 18FEE400#1d0386018d14c304
(1725350409.100000) can0 18FEE000#90782b1d70ff0100
(1725350409.100000) can0 18FEE400#3303bf016314c304
(1725350409.100000) can0 18FEE100#de03d303e703dc03
(1725350409.100000) can0 18FEE200#791e571ea51e6d1e
(1725350409.100000) can0 18FEE300#470dff040d06800c
(1725350409.120000) can0 18FEE000#b977fe1c70ff0100
(1725350409.120000) can0 18FEE400#03035a015314c404
(1725350409.140000) can0 18FEE000#53780a1d71ff0100
(1725350409.140000) can0 18FEE400#2f0388017514c504
(1725350409.160000) can0 18FEE000#3e77e81c71ff0100
(1725350409.160000) can0 18FEE400#2603b0016614c204
(1725350409.180000) can0 18FEE000#0978b41c71ff0100
(1725350409.180000) can0 18FEE400#0003ae018014c404
(1725350409.200000) can0 18FEE000#d777ed1c70ff0100
(1725350409.200000) can0 18FEE400#1703a9017e14c504
(1725350409.200000) can0 18FEE100#de03d203e803d503
(1725350409.200000) can0 18FEE200#6f1e541ea11e621e
(1725350409.200000) can0 18FEE300#300dff040906800c
(1725350409.220000) can0 18FEE000#f277061d70ff0100
(1725350409.220000) can0 18FEE400#3b038d018a14c604
(1725350409.240000) can0 18FEE000#a7772f1d70ff0100
(1725350409.240000) can0 18FEE400#280397017414c404
(1725350409.260000) can0 18FEE000#d677b91c71ff0100
(1725350409.260000) can0 18FEE400#1403a8018114c404
(1725350409.280000) can0 18FEE000#e778ca1c71ff0100
(1725350409.280000) can0 18FEE400#fa026a018b14c404
(1725350409.300000) can0 18FEE000#db77a91c71ff0100
(1725350409.300000) can0 18FEE400#1b0383017214c204
(1725350409.300000) can0 18FEE100#d903d103e503d903
(1725350409.300000) can0 18FEE200#531e531e9a1e6b1e
(1725350409.300000) can0 18FEE300#560d00051106800c
(1725350409.320000) can0 18FEE000#7578b11c71ff0100
(1725350409.320000) can0 18FEE400#2c037b018814c404
(1725350409.340000) can0 18FEE000#d578e01c70ff0100
(1725350409.340000) can0 18FEE400#350380018214c504
(1725350409.360000) can0 18FEE000#cb77dd1c70ff0100
(1725350409.360000) can0 18FEE400#150379017714c404
(1725350409.380000) can0 18FEE000#fd77211d71ff0100
(1725350409.380000) can0 18FEE400#05039c018114c304
(1725350409.400000) can0 18FEE000#7477e01c71ff0100
(1725350409.400000) can0 18FEE400#3603aa018b14c604
(1725350409.400000) can0 18FEE100#db03d303e503da03
(1725350409.400000) can0 18FEE200#6b1e511e9a1e581e
(1725350409.400000) can0 18FEE300#670dff040c06800c
(1725350409.420000) can0 18FEE000#ab770c1d6fff0100
(1725350409.420000) can0 18FEE400#3403a5017214c504
(1725350409.440000) can0 18FEE000#7c780e1d70ff0100
(1725350409.440000) can0 18FEE400#060373018014c404
(1725350409.460000) can0 18FEE000#de77d11c71ff0100
(1725350409.460000) can0 18FEE400#220356018214c404
(1725350409.480000) can0 18FEE000#df77ff1c70ff0100
(1725350409.480000) can0 18FEE400#1c0386018414c304
(1725350409.500000) can0 18FEE000#f678f71c70ff0100
(1725350409.500000) can0 18FEE400#2e0359018114c604
(1725350409.500000) can0 18FEE100#e003d903e303d803
(1725350409.500000) can0 18FEE200#7d1e531ea51e661e
(1725350409.500000) can0 18FEE300#500d01050a06800c
(1725350409.520000) can0 18FEE000#2f78c41c71ff0100
(1725350409.520000) can0 18FEE400#120374016414c404
(1725350409.540000) can0 18FEE000#88783f1d70ff0100
(1725350409.540000) can0 18FEE400#2803a7017914c204
(1725350409.560000) can0 18FEE000#f478e41c71ff0100
(1725350409.560000) can0 18FEE400#3d0383017114c404
(1725350409.580000) can0 18FEE000#ad770b1d70ff0100
(1725350409.580000) can0 18FEE400#2703a0016314c404
(1725350409.600000) can0 18FEE000#8478e21c70ff0100
(1725350409.600000) can0 18FEE400#1b03d4017e14c104
(1725350409.600000) can0 18FEE100#e103d103e003db03
(1725350409.600000) can0 18FEE200#5e1e461ea11e5d1e
(1725350409.600000) can0 18FEE300#3f0d01050a06800c
(1725350409.620000) can0 18FEE000#be78791c71ff0100
(1725350409.620000) can0 18FEE400#24039c014a14c404
(1725350409.640000) can0 18FEE000#9478ce1c70ff0100
(1725350409.640000) can0 18FEE400#2e0392017314c504
(1725350409.660000) can0 18FEE000#8578d51c70ff0100
(1725350409.660000) can0 18FEE400#14037a017814c404
(1725350409.680000) can0 18FEE000#6978151d70ff0100
(1725350409.680000) can0 18FEE400#0e037a016814c404
(1725350409.700000) can0 18FEE000#92779a1c70ff0100
(1725350409.700000) can0 18FEE400#20039b018014c604
(1725350409.700000) can0 18FEE100#df03d503ea03d803
(1725350409.700000) can0 18FEE200#751e521e921e561e
(1725350409.700000) can0 18FEE300#3e0d01050806800c
(1725350409.720000) can0 18FEE000#bd77f41c6fff0100
(1725350409.720000) can0 18FEE400#140362016f14c204
(1725350409.740000) can0 18FEE000#1a78c01c71ff0100
(1725350409.740000) can0 18FEE400#050368019514c504
(1725350409.760000) can0 18FEE000#9e78931c71ff0100
(1725350409.760000) can0 18FEE400#0f0393016914c304
(1725350409.780000) can0 18FEE000#8678c61c70ff0100
(1725350409.780000) can0 18FEE400#0b0369016014c404
(1725350409.800000) can0 18FEE000#8978cd1c70ff0100
(1725350409.800000) can0 18FEE400#1b037d018314c504
(1725350409.800000) can0 18FEE100#dd03d003e603d903
(1725350409.800000) can0 18FEE200#8e1e5c1e941e4a1e
(1725350409.800000) can0 18FEE300#590d00050d06800c
(1725350409.820000) can0 18FEE000#2578f71c70ff0100
(1725350409.820000) can0 18FEE400#1f03c1015b14c404
(1725350409.840000) can0 18FEE000#2079d41c70ff0100
(1725350409.840000) can0 18FEE400#06039c016814c304
(1725350409.860000) can0 18FEE000#5c77cd1c70ff0100
(1725350409.860000) can0 18FEE400#20035a018514c604
(1725350409.880000) can0 18FEE000#e777c71c70ff0100
(1725350409.880000) can0 18FEE400#2d03a4017814c504
(1725350409.900000) can0 18FEE000#1178f31c72ff0100
(1725350409.900000) can0 18FEE400#140387016314c404
(1725350409.900000) can0 18FEE100#df03d403e503de03
(1725350409.900000) can0 18FEE200#a21e3f1ea11e611e
(1725350409.900000) can0 18FEE300#5e0d01051606800c
(1725350409.920000) can0 18FEE000#0178b41c70ff0100
(1725350409.920000) can0 18FEE400#3a0381018014c504
(1725350409.940000) can0 18FEE000#86780a1d70ff0100
(1725350409.940000) can0 18FEE400#ff0294015b14c204
(1725350409.960000) can0 18FEE000#9678f01c71ff0100
(1725350409.960000) can0 18FEE400#0b039b016a14c504
(1725350409.980000) can0 18FEE000#3a79241d71ff0100
(1725350409.980000) can0 18FEE400#050376017e14c404
(1725350410.000000) can0 18FEE000#e078ef1c71ff0100
(1725350410.000000) can0 18FEE400#35037d016214c504
(1725350410.000000) can0 18FEE100#de03d303e903d903
(1725350410.000000) can0 18FEE200#721e611eb61e711e
(1725350410.000000) can0 18FEE300#5d0d01051206800c
(1725350410.020000) can0 18FEE000#2c78f91c70ff0100
(1725350410.020000) can0 18FEE400#20038a018e14c504
(1725350410.040000) can0 18FEE000#4977061d6fff0100
(1725350410.040000) can0 18FEE400#2003bb017a14c504
(1725350410.060000) can0 18FEE000#6a77c21c71ff0100
(1725350410.060000) can0 18FEE400#1d03a6016a14c304
(1725350410.080000) can0 18FEE000#4c78861c70ff0100
(1725350410.080000) can0 18FEE400#09038a018114c404
(1725350410.100000) can0 18FEE000#d477d31c70ff0100
(1725350410.100000) can0 18FEE400#0f0380016514c504
(1725350410.100000) can0 18FEE100#e003d803e803d403
(1725350410.100000) can0 18FEE200#701e581ea21e701e
(1725350410.100000) can0 18FEE300#470dff040806800c
(1725350410.120000) can0 18FEE000#a378ca1c70ff0100
(1725350410.120000) can0 18FEE400#2403c4019514c504
(1725350410.140000) can0 18FEE000#e278f21c71ff0100
(1725350410.140000) can0 18FEE400#3503ac017014c404
(1725350410.160000) can0 18FEE000#f177261d70ff0100
(1725350410.160000) can0 18FEE400#0703a5015d14c304
(1725350410.180000) can0 18FEE000#c578ee1c6fff0100
(1725350410.180000) can0 18FEE400#2103a9015e14c304
(1725350410.200000) can0 18FEE000#b777241d70ff0100
(1725350410.200000) can0 18FEE400#0d03bc019414c404
(1725350410.200000) can0 18FEE100#dc03d503eb03da03
(1725350410.200000) can0 18FEE200#821e4d1ea01e631e
(1725350410.200000) can0 18FEE300#520d00050706800c
(1725350410.220000) can0 18FEE000#4578bd1c70ff0100
(1725350410.220000) can0 18FEE400#2b037e017d14c604
(1725350410.240000) can0 18FEE000#ce78ca1c70ff0100
(1725350410.240000) can0 18FEE400#2c0358016014c504
(1725350410.260000) can0 18FEE000#5878101d70ff0100
(1725350410.260000) can0 18FEE400#260385018514c604
(1725350410.280000) can0 18FEE000#6578b41c70ff0100
(1725350410.280000) can0 18FEE400#3b03a0018d14c404
(1725350410.300000) can0 18FEE000#9378ec1c71ff0100
(1725350410.300000) can0 18FEE400#1c0385018214c204
(1725350410.300000) can0 18FEE100#dd03d203eb03dd03
(1725350410.300000) can0 18FEE200#791e2d1e931e771e
(1725350410.300000) can0 18FEE300#930d01051006800c
(1725350410.320000) can0 18FEE000#7178971c71ff0100
(1725350410.320000) can0 18FEE400#1403b6017714c404
(1725350410.340000) can0 18FEE000#8e788a1c70ff0100
(1725350410.340000) can0 18FEE400#1603ae017c14c504
(1725350410.360000) can0 18FEE000#f377d01c70ff0100
(1725350410.360000) can0 18FEE400#2d035e017e14c404
(1725350410.380000) can0 18FEE000#7c78c91c70ff0100
(1725350410.380000) can0 18FEE400#2a0377017c14c304
(1725350410.400000) can0 18FEE000#87791d1d70ff0100
(1725350410.400000) can0 18FEE400#28039d016814c404
(1725350410.400000) can0 18FEE100#e203d503eb03d603
(1725350410.400000) can0 18FEE200#7c1e331e931e561e
(1725350410.400000) can0 18FEE300#350dff041006800c
(1725350410.420000) can0 18FEE000#b777d91c71ff0100
(1725350410.420000) can0 18FEE400#240362018914c404
(1725350410.440000) can0 18FEE000#1478e51c70ff0100
(1725350410.440000) can0 18FEE400#3603b5018314c404
(1725350410.460000) can0 18FEE000#9378ee1c70ff0100
(1725350410.460000) can0 18FEE400#0003c4016e14c204
(1725350410.480000) can0 18FEE000#5878e01c71ff0100
(1725350410.480000) can0 18FEE400#1a03a7017314c304
(1725350410.500000) can0 18FEE000#cc77171d71ff0100
(1725350410.500000) can0 18FEE400#240369017314c304
(1725350410.500000) can0 18FEE100#e103d603e603dc03
(1725350410.500000) can0 18FEE200#7c1e4d1e991e5c1e
(1725350410.500000) can0 18FEE300#430dff040c06800c
(1725350410.520000) can0 18FEE000#2b78101d71ff0100
(1725350410.520000) can0 18FEE400#0603b3017c14c404
(1725350410.540000) can0 18FEE000#9977f81c70ff0100
(1725350410.540000) can0 18FEE400#1e03cb016b14c304
(1725350410.560000) can0 18FEE000#cd780c1d6fff0100
(1725350410.560000) can0 18FEE400#43038d017a14c304
(1725350410.580000) can0 18FEE000#de78241d70ff0100
(1725350410.580000) can0 18FEE400#280380017d14c304
(1725350410.600000) can0 18FEE000#4078f31c71ff0100
(1725350410.600000) can0 18FEE400#2b03b3016614c304
(1725350410.600000) can0 18FEE100#de03d803e503d403
(1725350410.600000) can0 18FEE200#551e451e8f1e511e
(1725350410.600000) can0 18FEE300#580d00051006800c
(1725350410.620000) can0 18FEE000#6378071d71ff0100
(1725350410.620000) can0 18FEE400#1c0383018914c504
(1725350410.640000) can0 18FEE000#2f78d01c70ff0100
(1725350410.640000) can0 18FEE400#49036e016414c504
(1725350410.660000) can0 18FEE000#2878b01c71ff0100
(1725350410.660000) can0 18FEE400#200396019114c404
(1725350410.680000) can0 18FEE000#8878a61c70ff0100
(1725350410.680000) can0 18FEE400#1b036b017814c404
(1725350410.700000) can0 18FEE000#9078ac1c71ff0100
(1725350410.700000) can0 18FEE400#29039b018914c404
(1725350410.700000) can0 18FEE100#dd03cf03e403d503
(1725350410.700000) can0 18FEE200#951e4c1e981e691e
(1725350410.700000) can0 18FEE300#290d00051206800c
(1725350410.720000) can0 18FEE000#5278fd1c71ff0100
(1725350410.720000) can0 18FEE400#3503d8017114c504
(1725350410.740000) can0 18FEE000#7478241d70ff0100
(1725350410.740000) can0 18FEE400#3003a2017214c504
(1725350410.760000) can0 18FEE000#d377171d70ff0100
(1725350410.760000) can0 18FEE400#01039b017c14c504
(1725350410.780000) can0 18FEE000#0278e71c70ff0100
(1725350410.780000) can0 18FEE400#2903b7018914c304
(1725350410.800000) can0 18FEE000#3978051d71ff0100
(1725350410.800000) can0 18FEE400#03038b017f14c404
(1725350410.800000) can0 18FEE100#e203d103e603d603
(1725350410.800000) can0 18FEE200#7d1e4a1e931e671e
(1725350410.800000) can0 18FEE300#4c0dff040f06800c
(1725350410.820000) can0 18FEE000#0878cf1c71ff0100
(1725350410.820000) can0 18FEE400#040398017e14c304
(1725350410.840000) can0 18FEE000#9d78e01c71ff0100
(1725350410.840000) can0 18FEE400#320398017d14c304
(1725350410.860000) can0 18FEE000#0778bc1c70ff0100
(1725350410.860000) can0 18FEE400#24038c018c14c404
(1725350410.880000) can0 18FEE000#f178cd1c70ff0100
(1725350410.880000) can0 18FEE400#2f039a018a14c404
(1725350410.900000) can0 18FEE000#9678dd1c71ff0100
(1725350410.900000) can0 18FEE400#1a03bc016714c504
(1725350410.900000) can0 18FEE100#de03d103e803da03
(1725350410.900000) can0 18FEE200#7a1e501e951e6f1e
(1725350410.900000) can0 18FEE300#2d0dff041706800c
(1725350410.920000) can0 18FEE000#5778d41c70ff0100
(1725350410.920000) can0 18FEE400#0b0393017d14c304
(1725350410.940000) can0 18FEE000#d5771e1d71ff0100
(1725350410.940000) can0 18FEE400#12036d017414c304
(1725350410.960000) can0 18FEE000#ad78f81c70ff0100
(1725350410.960000) can0 18FEE400#2d0398018714c404
(1725350410.980000) can0 18FEE000#1c78b71c71ff0100
(1725350410.980000) can0 18FEE400#3703a6016114c604
(1725350411.000000) can0 18FEE000#a677e01c70ff0100
(1725350411.000000) can0 18FEE400#2803ce018414c404
(1725350411.000000) can0 18FEE100#dd03d503e603dc03
(1725350411.000000) can0 18FEE200#921e4f1ea31e701e
(1725350411.000000) can0 18FEE300#3e0dff040806800c
(1725350411.020000) can0 18FEE000#3779fb1c70ff0100
(1725350411.020000) can0 18FEE400#210384016014c304
(1725350411.040000) can0 18FEE000#bc77b21c71ff0100
(1725350411.040000) can0 18FEE400#0203a4017314c404
(1725350411.060000) can0 18FEE000#7a78081d70ff0100
(1725350411.060000) can0 18FEE400#1303bc017614c304
(1725350411.080000) can0 18FEE000#b178041d71ff0100
(1725350411.080000) can0 18FEE400#1c0399016f14c304
(1725350411.100000) can0 18FEE000#6678dc1c71ff0100
(1725350411.100000) can0 18FEE400#2a03aa018014c504
(1725350411.100000) can0 18FEE100#dd03d103e603d803
(1725350411.100000) can0 18FEE200#861e461eb41e681e
(1725350411.100000) can0 18FEE300#280d00050e06800c
(1725350411.120000) can0 18FEE000#f6772f1d71ff0100
(1725350411.120000) can0 18FEE400#170379019214c304
(1725350411.140000) can0 18FEE000#6778c21c71ff0100
(1725350411.140000) can0 18FEE400#2603da017a14c604
(1725350411.160000) can0 18FEE000#7f78eb1c71ff0100
(1725350411.160000) can0 18FEE400#2803a4017e14c304
(1725350411.180000) can0 18FEE000#ca78d61c71ff0100
(1725350411.180000) can0 18FEE400#310385018414c604
(1725350411.200000) can0 18FEE000#3c780b1d70ff0100
(1725350411.200000) can0 18FEE400#2603bc017e14c304
(1725350411.200000) can0 18FEE100#dd03cc03e603d503
(1725350411.200000) can0 18FEE200#761e441eb31e6a1e
(1725350411.200000) can0 18FEE300#450d00050706800c
(1725350411.220000) can0 18FEE000#5f78cc1c70ff0100
(1725350411.220000) can0 18FEE400#17037d018914c404
(1725350411.240000) can0 18FEE000#9778031d71ff0100
(1725350411.240000) can0 18FEE400#49038e016c14c404
(1725350411.260000) can0 18FEE000#8c78a51c71ff0100
(1725350411.260000) can0 18FEE400#23039b016914c304
(1725350411.280000) can0 18FEE000#b477cc1c70ff0100
(1725350411.280000) can0 18FEE400#21038a017214c404
(1725350411.300000) can0 18FEE000#61781c1d71ff0100
(1725350411.300000) can0 18FEE400#0703e8017114c404
(1725350411.300000) can0 18FEE100#d903cf03e603d603
(1725350411.300000) can0 18FEE200#6f1e3e1e971e661e
(1725350411.300000) can0 18FEE300#460d00051306800c
(1725350411.320000) can0 18FEE000#2179ee1c70ff0100
(1725350411.320000) can0 18FEE400#0703a5015314c504
(1725350411.340000) can0 18FEE000#5878091d70ff0100
(1725350411.340000) can0 18FEE400#110371017514c304
(1725350411.360000) can0 18FEE000#bb77d31c71ff0100
(1725350411.360000) can0 18FEE400#f102b7017e14c404
(1725350411.380000) can0 18FEE000#6978411d70ff0100
(1725350411.380000) can0 18FEE400#0a039a017714c704
(1725350411.400000) can0 18FEE000#b6772d1d71ff0100
(1725350411.400000) can0 18FEE400#300395016914c304
(1725350411.400000) can0 18FEE100#da03d303e403da03
(1725350411.400000) can0 18FEE200#7a1e331e851e761e
(1725350411.400000) can0 18FEE300#620dfe040c06800c
(1725350411.420000) can0 18FEE000#3377131d70ff0100
(1725350411.420000) can0 18FEE400#20037e018314c404
(1725350411.440000) can0 18FEE000#6578e81c70ff0100
(1725350411.440000) can0 18FEE400#3203b4016c14c404
(1725350411.460000) can0 18FEE000#c3771d1d70ff0100
(1725350411.460000) can0 18FEE400#200384015214c604
(1725350411.480000) can0 18FEE000#8577e11c70ff0100
(1725350411.480000) can0 18FEE400#500365018514c404
(1725350411.500000) can0 18FEE000#4978cd1c6fff0100
(1725350411.500000) can0 18FEE400#330345016d14c404
(1725350411.500000) can0 18FEE100#d903d503e403d403
(1725350411.500000) can0 18FEE200#841e491e861e731e
(1725350411.500000) can0 18FEE300#4f0d00050506800c
(1725350411.520000) can0 18FEE000#bd77ba1c6fff0100
(1725350411.520000) can0 18FEE400#2f03a6016814c404
(1725350411.540000) can0 18FEE000#6a78e41c71ff0100
(1725350411.540000) can0 18FEE400#2003a6018814c504
(1725350411.560000) can0 18FEE000#c177c71c70ff0100
(1725350411.560000) can0 18FEE400#f90283017014c504
(1725350411.580000) can0 18FEE000#4a79d21c70ff0100
(1725350411.580000) can0 18FEE400#14035b017114c604
(1725350411.600000) can0 18FEE000#5c78011d70ff0100
(1725350411.600000) can0 18FEE400#07034d016414c504
(1725350411.600000) can0 18FEE100#da03d103e403d903
(1725350411.600000) can0 18FEE200#721e5b1ea01e701e
(1725350411.600000) can0 18FEE300#300d00050e06800c
(1725350411.620000) can0 18FEE000#d478d11c70ff0100
(1725350411.620000) can0 18FEE400#4403c9017e14c404
(1725350411.640000) can0 18FEE000#c678b61c70ff0100
(1725350411.640000) can0 18FEE400#2003a2016d14c504
(1725350411.660000) can0 18FEE000#c077e91c71ff0100
(1725350411.660000) can0 18FEE400#240395016314c504
(1725350411.680000) can0 18FEE000#cb78f31c71ff0100
(1725350411.680000) can0 18FEE400#230387019714c504
(1725350411.700000) can0 18FEE000#4d78d91c71ff0100
(1725350411.700000) can0 18FEE400#18038e017214c204
(1725350411.700000) can0 18FEE100#dd03d103e603d703
(1725350411.700000) can0 18FEE200#6b1e531e8d1e6b1e
(1725350411.700000) can0 18FEE300#420d00050f06800c
(1725350411.720000) can0 18FEE000#fc77431d71ff0100
(1725350411.720000) can0 18FEE400#2003b8017d14c304
(1725350411.740000) can0 18FEE000#18790b1d71ff0100
(1725350411.740000) can0 18FEE400#2503a4018314c304
(1725350411.760000) can0 18FEE000#5578f21c70ff0100
(1725350411.760000) can0 18FEE400#fb0299018414c404
(1725350411.780000) can0 18FEE000#0e78131d72ff0100
(1725350411.780000) can0 18FEE400#2c0337017414c504
(1725350411.800000) can0 18FEE000#6d781d1d70ff0100
(1725350411.800000) can0 18FEE400#4503a2019914c404
(1725350411.800000) can0 18FEE100#e303d203e703d903
(1725350411.800000) can0 18FEE200#881e521e961e7e1e
(1725350411.800000) can0 18FEE300#5e0d02050e06800c
(1725350411.820000) can0 18FEE000#6e78af1c70ff0100
(1725350411.820000) can0 18FEE400#09037d019514c504
(1725350411.840000) can0 18FEE000#c477141d71ff0100
(1725350411.840000) can0 18FEE400#280398016214c404
(1725350411.860000) can0 18FEE000#8578ae1c71ff0100
(1725350411.860000) can0 18FEE400#fb029b016914c604
(1725350411.880000) can0 18FEE000#1b79fa1c70ff0100
(1725350411.880000) can0 18FEE400#2b03c0019014c504
(1725350411.900000) can0 18FEE000#6778ab1c70ff0100
(1725350411.900000) can0 18FEE400#26037e017014c504
(1725350411.900000) can0 18FEE100#dc03d003e203da03
(1725350411.900000) can0 18FEE200#581e3c1ea61e651e
(1725350411.900000) can0 18FEE300#450d00050c06800c
(1725350411.920000) can0 18FEE000#5378cc1c71ff0100
(1725350411.920000) can0 18FEE400#070367017814c304
(1725350411.940000) can0 18FEE000#5778ef1c70ff0100
(1725350411.940000) can0 18FEE400#4503b2017414c404
(1725350411.960000) can0 18FEE000#f178031d71ff0100
(1725350411.960000) can0 18FEE400#4303a9017714c304
(1725350411.980000) can0 18FEE000#f378fb1c70ff0100
(1725350411.980000) can0 18FEE400#13036c019114c504
(1725350412.000000) can0 18FEE000#6978161d71ff0100
(1725350412.000000) can0 18FEE400#080370018614c504
(1725350412.000000) can0 18FEE100#e203d803ea03da03
(1725350412.000000) can0 18FEE200#701e411e9d1e7a1e
(1725350412.000000) can0 18FEE300#5b0d00051106800c
(1725350412.020000) can0 18FEE000#1677d71c6fff0100
(1725350412.020000) can0 18FEE400#0203d2016614c304
(1725350412.040000) can0 18FEE000#7d79df1c71ff0100
(1725350412.040000) can0 18FEE400#2a038b016c14c504
(1725350412.060000) can0 18FEE000#1878e31c70ff0100
(1725350412.060000) can0 18FEE400#1b03be018314c404
(1725350412.080000) can0 18FEE000#b378961c71ff0100
(1725350412.080000) can0 18FEE400#1c03b9016814c304
(1725350412.100000) can0 18FEE000#4c78d01c70ff0100
(1725350412.100000) can0 18FEE400#250359017214c404
(1725350412.100000) can0 18FEE100#de03d103e203da03
(1725350412.100000) can0 18FEE200#7d1e6e1e991e6d1e
(1725350412.100000) can0 18FEE300#580d01050706800c
(1725350412.120000) can0 18FEE000#d078f41c70ff0100
(1725350412.120000) can0 18FEE400#240386018114c604
(1725350412.140000) can0 18FEE000#7179d41c70ff0100
(1725350412.140000) can0 18FEE400#13038f017e14c404
(1725350412.160000) can0 18FEE000#d078da1c71ff0100
(1725350412.160000) can0 18FEE400#140398016e14c304
(1725350412.180000) can0 18FEE000#7c78e61c70ff0100
(1725350412.180000) can0 18FEE400#34038d016e14c304
(1725350412.200000) can0 18FEE000#4878d71c71ff0100
(1725350412.200000) can0 18FEE400#1c03b3019414c404
(1725350412.200000) can0 18FEE100#de03d203e603db03
(1725350412.200000) can0 18FEE200#6d1e4d1e8c1e691e
(1725350412.200000) can0 18FEE300#420d01050f06800c
(1725350412.220000) can0 18FEE000#d778da1c71ff0100
(1725350412.220000) can0 18FEE400#16037e017914c604
(1725350412.240000) can0 18FEE000#5278291d70ff0100
(1725350412.240000) can0 18FEE400#0503a0017414c404
(1725350412.260000) can0 18FEE000#92770e1d70ff0100
(1725350412.260000) can0 18FEE400#3203a1017414c304
(1725350412.280000) can0 18FEE000#a077b61c70ff0100
(1725350412.280000) can0 18FEE400#2803a2017914c504
(1725350412.300000) can0 18FEE000#7578361d70ff0100
(1725350412.300000) can0 18FEE400#3203c7018314c404
(1725350412.300000) can0 18FEE100#da03d403e603db03
(1725350412.300000) can0 18FEE200#7b1e561eaf1e501e
(1725350412.300000) can0 18FEE300#480d00050d06800c
(1725350412.320000) can0 18FEE000#9979ff1c70ff0100
(1725350412.320000) can0 18FEE400#300385016614c404
(1725350412.340000) can0 18FEE000#f377f21c70ff0100
(1725350412.340000) can0 18FEE400#19039e017f14c504
(1725350412.360000) can0 18FEE000#6778c11c70ff0100
(1725350412.360000) can0 18FEE400#21038d016d14c304
(1725350412.380000) can0 18FEE000#9e78e71c70ff0100
(1725350412.380000) can0 18FEE400#12036f014214c504
(1725350412.400000) can0 18FEE000#0478b01c70ff0100
(1725350412.400000) can0 18FEE400#1f034f017414c204
(1725350412.400000) can0 18FEE100#de03cb03e803db03
(1725350412.400000) can0 18FEE200#7d1e3f1eae1e671e
(1725350412.400000) can0 18FEE300#210dff040506800c
(1725350412.420000) can0 18FEE000#9777cc1c71ff0100
(1725350412.420000) can0 18FEE400#200368019214c404
(1725350412.440000) can0 18FEE000#3778ae1c70ff0100
(1725350412.440000) can0 18FEE400#3b03b5016614c304
(1725350412.460000) can0 18FEE000#3278e51c70ff0100
(1725350412.460000) can0 18FEE400#2c038a017114c404
(1725350412.480000) can0 18FEE000#e5789f1c71ff0100
(1725350412.480000) can0 18FEE400#1103be017e14c404
(1725350412.500000) can0 18FEE000#d578a11c71ff0100
(1725350412.500000) can0 18FEE400#3c036f017514c304
(1725350412.500000) can0 18FEE100#d903d403e803d903
(1725350412.500000) can0 18FEE200#811e241ea81e511e
(1725350412.500000) can0 18FEE300#3b0d00051706800c
(1725350412.520000) can0 18FEE000#5778cf1c71ff0100
(1725350412.520000) can0 18FEE400#380396019314c504
(1725350412.540000) can0 18FEE000#9d77c51c71ff0100
(1725350412.540000) can0 18FEE400#0803b8015d14c404
(1725350412.560000) can0 18FEE000#3478ca1c71ff0100
(1725350412.560000) can0 18FEE400#3203be017e14c404
(1725350412.580000) can0 18FEE000#0978271d70ff0100
(1725350412.580000) can0 18FEE400#0f03a0016f14c504
(1725350412.600000) can0 18FEE000#d178ad1c70ff0100
(1725350412.600000) can0 18FEE400#35038d016414c404
(1725350412.600000) can0 18FEE100#dc03d003e303dc03
(1725350412.600000) can0 18FEE200#781e4e1e8f1e621e
(1725350412.600000) can0 18FEE300#480dff040e06800c
(1725350412.620000) can0 18FEE000#f078dd1c71ff0100
(1725350412.620000) can0 18FEE400#0c037c018e14c304
(1725350412.640000) can0 18FEE000#31783d1d71ff0100
(1725350412.640000) can0 18FEE400#3e03a7017314c304
(1725350412.660000) can0 18FEE000#d178051d71ff0100
(1725350412.660000) can0 18FEE400#2903da016214c504
(1725350412.680000) can0 18FEE000#0878bc1c70ff0100
(1725350412.680000) can0 18FEE400#5803a2016f14c304
(1725350412.700000) can0 18FEE000#5278d81c70ff0100
(1725350412.700000) can0 18FEE400#2f0380018314c404
(1725350412.700000) can0 18FEE100#e103cc03e403db03
(1725350412.700000) can0 18FEE200#711e401e951e4e1e
(1725350412.700000) can0 18FEE300#380dfe040a06800c
(1725350412.720000) can0 18FEE000#c377ea1c71ff0100
(1725350412.720000) can0 18FEE400#1b0378017214c304
(1725350412.740000) can0 18FEE000#5c78fc1c71ff0100
(1725350412.740000) can0 18FEE400#050372016814c404
(1725350412.760000) can0 18FEE000#fb770b1d70ff0100
(1725350412.760000) can0 18FEE400#3e03a2018314c604
(1725350412.780000) can0 18FEE000#8778f31c71ff0100
(1725350412.780000) can0 18FEE400#310397019014c504
(1725350412.800000) can0 18FEE000#aa78201d70ff0100
(1725350412.800000) can0 18FEE400#050372017314c304
(1725350412.800000) can0 18FEE100#df03cd03e603de03
(1725350412.800000) can0 18FEE200#981e381e8f1e811e
(1725350412.800000) can0 18FEE300#410dff040e06800c
(1725350412.820000) can0 18FEE000#e078ed1c70ff0100
(1725350412.820000) can0 18FEE400#180372016614c404
(1725350412.840000) can0 18FEE000#6878ec1c70ff0100
(1725350412.840000) can0 18FEE400#06036e017014c404
(1725350412.860000) can0 18FEE000#7878f61c6fff0100
(1725350412.860000) can0 18FEE400#3203a9018114c404
(1725350412.880000) can0 18FEE000#6d78b51c70ff0100
(1725350412.880000) can0 18FEE400#13036f017d14c504
(1725350412.900000) can0 18FEE000#6478ed1c71ff0100
(1725350412.900000) can0 18FEE400#29039f017814c504
(1725350412.900000) can0 18FEE100#e203d203e803db03
(1725350412.900000) can0 18FEE200#841e5b1e921e5d1e
(1725350412.900000) can0 18FEE300#320d00050f06800c
(1725350412.920000) can0 18FEE000#b378c81c70ff0100
(1725350412.920000) can0 18FEE400#2603a4018714c404
(1725350412.940000) can0 18FEE000#a4781d1d70ff0100
(1725350412.940000) can0 18FEE400#20036d016f14c204
(1725350412.960000) can0 18FEE000#c877dd1c71ff0100
(1725350412.960000) can0 18FEE400#1a0355017614c404
(1725350412.980000) can0 18FEE000#af78cb1c70ff0100
(1725350412.980000) can0 18FEE400#43036e016f14c304
(1725350413.000000) can0 18FEE000#d077fb1c70ff0100
(1725350413.000000) can0 18FEE400#1d03b7017114c404
(1725350413.000000) can0 18FEE100#de03d103e603d903
(1725350413.000000) can0 18FEE200#751e4f1e9c1e471e
(1725350413.000000) can0 18FEE300#450d00050b06800c
(1725350413.020000) can0 18FEE000#0f78041d70ff0100
(1725350413.020000) can0 18FEE400#2c0363017c14c304
(1725350413.040000) can0 18FEE000#08790e1d71ff0100
(1725350413.040000) can0 18FEE400#28038b017214c404
(1725350413.060000) can0 18FEE000#0d79dd1c70ff0100
(1725350413.060000) can0 18FEE400#110392019714c404
(1725350413.080000) can0 18FEE000#1d78d51c71ff0100
(1725350413.080000) can0 18FEE400#1603ae017d14c604
(1725350413.100000) can0 18FEE000#9178d21c70ff0100
(1725350413.100000) can0 18FEE400#1603ac018a14c504
(1725350413.100000) can0 18FEE100#dc03d303e403de03
(1725350413.100000) can0 18FEE200#691e411ea41e6f1e
(1725350413.100000) can0 18FEE300#5f0d00050a06800c
(1725350413.120000) can0 18FEE000#a477be1c71ff0100
(1725350413.120000) can0 18FEE400#0e03ba016f14c504
(1725350413.140000) can0 18FEE000#ba78f61c70ff0100
(1725350413.140000) can0 18FEE400#2e035c016314c504
(1725350413.160000) can0 18FEE000#fa771a1d71ff0100
(1725350413.160000) can0 18FEE400#1403a5016814c404
(1725350413.180000) can0 18FEE000#0178101d70ff0100
(1725350413.180000) can0 18FEE400#310356017614c504
(1725350413.200000) can0 18FEE000#9a77e81c70ff0100
(1725350413.200000) can0 18FEE400#21037a018f14c404
(1725350413.200000) can0 18FEE100#d803ca03e703d503
(1725350413.200000) can0 18FEE200#7e1e2f1e841e6c1e
(1725350413.200000) can0 18FEE300#380d00050506800c
(1725350413.220000) can0 18FEE000#6978251d71ff0100
(1725350413.220000) can0 18FEE400#0c03aa017114c304
(1725350413.240000) can0 18FEE000#be78021d70ff0100
(1725350413.240000) can0 18FEE400#1c037d019e14c404
(1725350413.260000) can0 18FEE000#7b78d81c71ff0100
(1725350413.260000) can0 18FEE400#22037f016514c304
(1725350413.280000) can0 18FEE000#8e77e01c71ff0100
(1725350413.280000) can0 18FEE400#290382018114c304
(1725350413.300000) can0 18FEE000#a078fb1c70ff0100
(1725350413.300000) can0 18FEE400#2a0380017714c104
(1725350413.300000) can0 18FEE100#de03d503e703d503
(1725350413.300000) can0 18FEE200#7c1e351e9d1e791e
(1725350413.300000) can0 18FEE300#4c0dff040c06800c
(1725350413.320000) can0 18FEE000#5477fc1c71ff0100
(1725350413.320000) can0 18FEE400#ea02ad018e14c204
(1725350413.340000) can0 18FEE000#6178e51c70ff0100
(1725350413.340000) can0 18FEE400#020374018414c304
(1725350413.360000) can0 18FEE000#1979251d71ff0100
(1725350413.360000) can0 18FEE400#fb02a3018614c304
(1725350413.380000) can0 18FEE000#5978ea1c71ff0100
(1725350413.380000) can0 18FEE400#1f039e018414c404
(1725350413.400000) can0 18FEE000#6478e71c70ff0100
(1725350413.400000) can0 18FEE400#1603cf019214c404
(1725350413.400000) can0 18FEE100#de03ce03ea03d803
(1725350413.400000) can0 18FEE200#721e531e971e881e
(1725350413.400000) can0 18FEE300#4e0d02050d06800c
(1725350413.420000) can0 18FEE000#5778011d70ff0100
(1725350413.420000) can0 18FEE400#070364017614c304
(1725350413.440000) can0 18FEE000#e678c81c71ff0100
(1725350413.440000) can0 18FEE400#3603c3018e14c404
(1725350413.460000) can0 18FEE000#1c78341d70ff0100
(1725350413.460000) can0 18FEE400#21038c017014c404
(1725350413.480000) can0 18FEE000#c577021d71ff0100
(1725350413.480000) can0 18FEE400#0c03d4018414c504
(1725350413.500000) can0 18FEE000#c078ff1c70ff0100
(1725350413.500000) can0 18FEE400#1c0383017014c204
(1725350413.500000) can0 18FEE100#df03d503e903dd03
(1725350413.500000) can0 18FEE200#721e4b1ea81e6a1e
(1725350413.500000) can0 18FEE300#3b0d01050e06800c
(1725350413.520000) can0 18FEE000#88780e1d70ff0100
(1725350413.520000) can0 18FEE400#3103a5017914c404
(1725350413.540000) can0 18FEE000#5d78a81c70ff0100
(1725350413.540000) can0 18FEE400#2e038b016814c304
(1725350413.560000) can0 18FEE000#8b77bd1c71ff0100
(1725350413.560000) can0 18FEE400#31034e017e14c404
(1725350413.580000) can0 18FEE000#9d77031d71ff0100
(1725350413.580000) can0 18FEE400#050354017d14c304
(1725350413.600000) can0 18FEE000#5278221d70ff0100
(1725350413.600000) can0 18FEE400#13033e017614c404
(1725350413.600000) can0 18FEE100#da03d403e203dd03
(1725350413.600000) can0 18FEE200#731e511eb01e611e
(1725350413.600000) can0 18FEE300#470dff040c06800c
(1725350413.620000) can0 18FEE000#3378ea1c71ff0100
(1725350413.620000) can0 18FEE400#2803c4018c14c404
(1725350413.640000) can0 18FEE000#6e78e51c70ff0100
(1725350413.640000) can0 18FEE400#150391015c14c204
(1725350413.660000) can0 18FEE000#fc78fc1c70ff0100
(1725350413.660000) can0 18FEE400#3303b3016a14c204
(1725350413.680000) can0 18FEE000#f978dc1c71ff0100
(1725350413.680000) can0 18FEE400#0b037a017f14c504
(1725350413.700000) can0 18FEE000#76780d1d70ff0100
(1725350413.700000) can0 18FEE400#1d03a4018214c404
(1725350413.700000) can0 18FEE100#dd03d203eb03d603
(1725350413.700000) can0 18FEE200#6f1e4d1ea81e591e
(1725350413.700000) can0 18FEE300#190d00050806800c
(1725350413.720000) can0 18FEE000#5978d11c71ff0100
(1725350413.720000) can0 18FEE400#0003ca016f14c404
(1725350413.740000) can0 18FEE000#ea78c81c71ff0100
(1725350413.740000) can0 18FEE400#2f03a7017814c404
(1725350413.760000) can0 18FEE000#2578d01c71ff0100
(1725350413.760000) can0 18FEE400#1a0358019214c404
(1725350413.780000) can0 18FEE000#ab78291d70ff0100
(1725350413.780000) can0 18FEE400#3003a8017014c504
(1725350413.800000) can0 18FEE000#2f79f41c71ff0100
(1725350413.800000) can0 18FEE400#26038d017a14c404
(1725350413.800000) can0 18FEE100#db03cf03e903d703
(1725350413.800000) can0 18FEE200#6d1e291eaf1e611e
(1725350413.800000) can0 18FEE300#610d02051306800c
(1725350413.820000) can0 18FEE000#1c79c91c70ff0100
(1725350413.820000) can0 18FEE400#14039c017b14c504
(1725350413.840000) can0 18FEE000#9977e21c71ff0100
(1725350413.840000) can0 18FEE400#07039d016114c504
(1725350413.860000) can0 18FEE000#4078f21c71ff0100
(1725350413.860000) can0 18FEE400#350380016114c404
(1725350413.880000) can0 18FEE000#9e77d31c71ff0100
(1725350413.880000) can0 18FEE400#2b0359017214c304
(1725350413.900000) can0 18FEE000#9677e81c71ff0100
(1725350413.900000) can0 18FEE400#17036c018b14c504
(1725350413.900000) can0 18FEE100#e003d503e303d403
(1725350413.900000) can0 18FEE200#891e411eaf1e6b1e
(1725350413.900000) can0 18FEE300#320d00050e06800c
(1725350413.920000) can0 18FEE000#e778001d71ff0100
(1725350413.920000) can0 18FEE400#3603ae014f14c504
(1725350413.940000) can0 18FEE000#8778ca1c70ff0100
(1725350413.940000) can0 18FEE400#13038c019b14c404
(1725350413.960000) can0 18FEE000#41780f1d71ff0100
(1725350413.960000) can0 18FEE400#3f03bc017b14c604
(1725350413.980000) can0 18FEE000#3378b41c70ff0100
(1725350413.980000) can0 18FEE400#4a038a017714c404
(1725350414.000000) can0 18FEE000#aa771b1d71ff0100
(1725350414.000000) can0 18FEE400#1b03c8016314c504
(1725350414.000000) can0 18FEE100#dd03cf03e903d403
(1725350414.000000) can0 18FEE200#7b1e401eaa1e661e
(1725350414.000000) can0 18FEE300#650d01051006800c
(1725350414.020000) can0 18FEE000#8178f21c70ff0100
(1725350414.020000) can0 18FEE400#1d038f019114c204
(1725350414.040000) can0 18FEE000#9d78eb1c71ff0100
(1725350414.040000) can0 18FEE400#150377016214c404
(1725350414.060000) can0 18FEE000#1778e51c70ff0100
(1725350414.060000) can0 18FEE400#06037e018214c404
(1725350414.080000) can0 18FEE000#9f77bc1c70ff0100
(1725350414.080000) can0 18FEE400#3d03c6017814c504
(1725350414.100000) can0 18FEE000#3878cf1c71ff0100
(1725350414.100000) can0 18FEE400#10037c017e14c404
(1725350414.100000) can0 18FEE100#de03d303e203d703
(1725350414.100000) can0 18FEE200#791e591e901e791e
(1725350414.100000) can0 18FEE300#5f0d01051006800c
(1725350414.120000) can0 18FEE000#9a78b71c70ff0100
(1725350414.120000) can0 18FEE400#1d038d015e14c404
(1725350414.140000) can0 18FEE000#e477111d70ff0100
(1725350414.140000) can0 18FEE400#0103c3018214c304
(1725350414.160000) can0 18FEE000#dd77991c70ff0100
(1725350414.160000) can0 18FEE400#07038e016114c504
(1725350414.180000) can0 18FEE000#8f77d71c6fff0100
(1725350414.180000) can0 18FEE400#220380018a14c504
(1725350414.200000) can0 18FEE000#3878b91c70ff0100
(1725350414.200000) can0 18FEE400#430379016814c604
(1725350414.200000) can0 18FEE100#dd03d303e403da03
(1725350414.200000) can0 18FEE200#6e1e411e8c1e671e
(1725350414.200000) can0 18FEE300#290d01050806800c
(1725350414.220000) can0 18FEE000#ed77bb1c70ff0100
(1725350414.220000) can0 18FEE400#2a037a015914c404
(1725350414.240000) can0 18FEE000#b677d51c71ff0100
(1725350414.240000) can0 18FEE400#4803a0016114c504
(1725350414.260000) can0 18FEE000#fe78ec1c71ff0100
(1725350414.260000) can0 18FEE400#370388015714c304
(1725350414.280000) can0 18FEE000#8b77871c70ff0100
(1725350414.280000) can0 18FEE400#20037d018114c504
(1725350414.300000) can0 18FEE000#b278221d71ff0100
(1725350414.300000) can0 18FEE400#25039b018a14c404
(1725350414.300000) can0 18FEE100#dd03d403e503d803
(1725350414.300000) can0 18FEE200#871e5e1e9a1e8a1e
(1725350414.300000) can0 18FEE300#470d00051106800c
(1725350414.320000) can0 18FEE000#5978b71c71ff0100
(1725350414.320000) can0 18FEE400#280361017014c404
(1725350414.340000) can0 18FEE000#f077d91c71ff0100
(1725350414.340000) can0 18FEE400#280385016414c204
(1725350414.360000) can0 18FEE000#0178781c70ff0100
(1725350414.360000) can0 18FEE400#160361016c14c404
(1725350414.380000) can0 18FEE000#dc77fa1c71ff0100
(1725350414.380000) can0 18FEE400#f502b6017014c504
(1725350414.400000) can0 18FEE000#9c780a1d71ff0100
(1725350414.400000) can0 18FEE400#12038c018514c604
(1725350414.400000) can0 18FEE100#e103d103e503dd03
(1725350414.400000) can0 18FEE200#831e3c1e9a1e5e1e
(1725350414.400000) can0 18FEE300#3a0d00051206800c
(1725350414.420000) can0 18FEE000#ce78241d71ff0100
(1725350414.420000) can0 18FEE400#1703b6016814c604
(1725350414.440000) can0 18FEE000#7d78c61c71ff0100
(1725350414.440000) can0 18FEE400#2f0368017314c504
(1725350414.460000) can0 18FEE000#a878f11c70ff0100
(1725350414.460000) can0 18FEE400#1b03d6014d14c204
(1725350414.480000) can0 18FEE000#dd77c41c70ff0100
(1725350414.480000) can0 18FEE400#ff02c5018a14c604
(1725350414.500000) can0 18FEE000#4679121d71ff0100
(1725350414.500000) can0 18FEE400#3403ae019214c204
(1725350414.500000) can0 18FEE100#e203d303eb03de03
(1725350414.500000) can0 18FEE200#731e361e911e4d1e
(1725350414.500000) can0 18FEE300#420d00051706800c
(1725350414.520000) can0 18FEE000#1878ce1c71ff0100
(1725350414.520000) can0 18FEE400#0e0397016414c504
(1725350414.540000) can0 18FEE000#3278151d71ff0100
(1725350414.540000) can0 18FEE400#2f0387016614c304
(1725350414.560000) can0 18FEE000#1c78f11c70ff0100
(1725350414.560000) can0 18FEE400#2703b1018814c404
(1725350414.580000) can0 18FEE000#6a78e31c70ff0100
(1725350414.580000) can0 18FEE400#1b03af017814c504
(1725350414.600000) can0 18FEE000#d477c31c70ff0100
(1725350414.600000) can0 18FEE400#0f0354016b14c604
(1725350414.600000) can0 18FEE100#dc03d303ec03d703
(1725350414.600000) can0 18FEE200#881e3b1e961e611e
(1725350414.600000) can0 18FEE300#3d0d00050806800c
(1725350414.620000) can0 18FEE000#ce77ef1c71ff0100
(1725350414.620000) can0 18FEE400#270374017a14c304
(1725350414.640000) can0 18FEE000#c878251d71ff0100
(1725350414.640000) can0 18FEE400#01035e016714c504
(1725350414.660000) can0 18FEE000#1179bb1c71ff0100
(1725350414.660000) can0 18FEE400#3b039c016e14c304
(1725350414.680000) can0 18FEE000#cf78301d70ff0100
(1725350414.680000) can0 18FEE400#430391016d14c504
(1725350414.700000) can0 18FEE000#c577181d70ff0100
(1725350414.700000) can0 18FEE400#100392016f14c304
(1725350414.700000) can0 18FEE100#dc03d003e503db03
(1725350414.700000) can0 18FEE200#811e5d1e891e601e
(1725350414.700000) can0 18FEE300#450d00050906800c
(1725350414.720000) can0 18FEE000#ba77e91c70ff0100
(1725350414.720000) can0 18FEE400#1f0380017c14c304
(1725350414.740000) can0 18FEE000#c878041d71ff0100
(1725350414.740000) can0 18FEE400#2803b0018714c304
(1725350414.760000) can0 18FEE000#0879f31c70ff0100
(1725350414.760000) can0 18FEE400#1f0363016d14c304
(1725350414.780000) can0 18FEE000#1278d41c71ff0100
(1725350414.780000) can0 18FEE400#fc029b015b14c604
(1725350414.800000) can0 18FEE000#3378b01c70ff0100
(1725350414.800000) can0 18FEE400#2903bc017214c204
(1725350414.800000) can0 18FEE100#db03d303e803d903
(1725350414.800000) can0 18FEE200#591e561e771e661e
(1725350414.800000) can0 18FEE300#3d0d00050606800c
(1725350414.820000) can0 18FEE000#4378ff1c71ff0100
(1725350414.820000) can0 18FEE400#0803a3017c14c304
(1725350414.840000) can0 18FEE000#5978f41c71ff0100
(1725350414.840000) can0 18FEE400#440378017614c304
(1725350414.860000) can0 18FEE000#ec77f61c71ff0100
(1725350414.860000) can0 18FEE400#230398015d14c404
(1725350414.880000) can0 18FEE000#1b78d41c70ff0100
(1725350414.880000) can0 18FEE400#20038e017614c404
(1725350414.900000) can0 18FEE000#e578211d70ff0100
(1725350414.900000) can0 18FEE400#1a038e016e14c504
(1725350414.900000) can0 18FEE100#dd03d803e603d603
(1725350414.900000) can0 18FEE200#8a1e5f1e991e581e
(1725350414.900000) can0 18FEE300#650d00050f06800c
(1725350414.920000) can0 18FEE000#1f78fa1c70ff0100
(1725350414.920000) can0 18FEE400#220373016814c404
(1725350414.940000) can0 18FEE000#a178ad1c70ff0100
(1725350414.940000) can0 18FEE400#2903b5017114c404
(1725350414.960000) can0 18FEE000#bc78e81c70ff0100
(1725350414.960000) can0 18FEE400#3e039e015e14c504
(1725350414.980000) can0 18FEE000#3678e71c70ff0100
(1725350414.980000) can0 18FEE400#0b037f018014c504
(1725350415.000000) can0 18FEE000#ff78ec1c70ff0100
(1725350415.000000) can0 18FEE400#09036e017514c504
(1725350415.000000) can0 18FEE100#dc03d003e703e203
(1725350415.000000) can0 18FEE200#761e561e911e6e1e
(1725350415.000000) can0 18FEE300#410d00050d06800c
(1725350415.020000) can0 18FEE000#9478df1c70ff0100
(1725350415.020000) can0 18FEE400#270395017a14c404
(1725350415.040000) can0 18FEE000#eb77f71c70ff0100
(1725350415.040000) can0 18FEE400#330392017d14c604
(1725350415.060000) can0 18FEE000#6378b71c71ff0100
